! Created Thu Jun  4 23:56:19 2020
# hz S ma R 50
! 8 Port Network Data from SP1.SP block
! freq  magS11  angS11  magS12  angS12  magS13  angS13  magS14  angS14  
!       magS15  angS15  magS16  angS16  magS17  angS17  magS18  angS18  
!       magS21  angS21  magS22  angS22  magS23  angS23  magS24  angS24  
!       magS25  angS25  magS26  angS26  magS27  angS27  magS28  angS28  
!       magS31  angS31  magS32  angS32  magS33  angS33  magS34  angS34  
!       magS35  angS35  magS36  angS36  magS37  angS37  magS38  angS38  
!       magS41  angS41  magS42  angS42  magS43  angS43  magS44  angS44  
!       magS45  angS45  magS46  angS46  magS47  angS47  magS48  angS48  
!       magS51  angS51  magS52  angS52  magS53  angS53  magS54  angS54  
!       magS55  angS55  magS56  angS56  magS57  angS57  magS58  angS58  
!       magS61  angS61  magS62  angS62  magS63  angS63  magS64  angS64  
!       magS65  angS65  magS66  angS66  magS67  angS67  magS68  angS68  
!       magS71  angS71  magS72  angS72  magS73  angS73  magS74  angS74  
!       magS75  angS75  magS76  angS76  magS77  angS77  magS78  angS78  
!       magS81  angS81  magS82  angS82  magS83  angS83  magS84  angS84  
!       magS85  angS85  magS86  angS86  magS87  angS87  magS88  angS88  
!     
         100000000     0.00645618158         89.1167445      0.00651457937         88.5450705      0.00161897571         87.8995593     0.000917962994         87.5895452
                       0.99989677        -1.13876843      0.00320353413        -91.8163997      0.00147617038        -92.3290028     0.000859041348        -92.5514131
                    0.00651457937         88.5450705      0.00621141238         89.0563019      0.00383629639         88.3690194      0.00161897571         87.8995593
                    0.00320353413        -91.8163997        0.999888895        -1.14007446      0.00224725721        -92.0325016      0.00147617038        -92.3290028
                    0.00161897571         87.8995593      0.00383629639         88.3690194      0.00621141238         89.0563019      0.00651457937         88.5450705
                    0.00147617038        -92.3290028      0.00224725721        -92.0325016        0.999888895        -1.14007446      0.00320353413        -91.8163997
                   0.000917962994         87.5895452      0.00161897571         87.8995593      0.00651457937         88.5450705      0.00645618158         89.1167445
                   0.000859041348        -92.5514131      0.00147617038        -92.3290028      0.00320353413        -91.8163997         0.99989677        -1.13876843
                       0.99989677        -1.13876843      0.00320353413        -91.8163997      0.00147617038        -92.3290028     0.000859041348        -92.5514131
                    0.00645618158         89.1167445      0.00651457937         88.5450705      0.00161897571         87.8995593     0.000917962994         87.5895452
                    0.00320353413        -91.8163997        0.999888895        -1.14007446      0.00224725721        -92.0325016      0.00147617038        -92.3290028
                    0.00651457937         88.5450705      0.00621141238         89.0563019      0.00383629639         88.3690194      0.00161897571         87.8995593
                    0.00147617038        -92.3290028      0.00224725721        -92.0325016        0.999888895        -1.14007446      0.00320353413        -91.8163997
                    0.00161897571         87.8995593      0.00383629639         88.3690194      0.00621141238         89.0563019      0.00651457937         88.5450705
                   0.000859041348        -92.5514131      0.00147617038        -92.3290028      0.00320353413        -91.8163997         0.99989677        -1.13876843
                   0.000917962994         87.5895452      0.00161897571         87.8995593      0.00651457937         88.5450705      0.00645618158         89.1167445

         200000000      0.0129516455         87.7675496       0.0130138521         87.1753639      0.00323487078         85.8024158      0.00183399326         85.1818279
                      0.999692419        -2.27458501      0.00641159989        -93.8027357      0.00294998366        -94.6594048      0.00171640646        -95.1033896
                     0.0130138521         87.1753639       0.0124615374         87.6257756      0.00766355661         86.8006168      0.00323487078         85.8024158
                    0.00641159989        -93.8027357        0.999661667        -2.27711585      0.00449472279        -94.1684247      0.00294998366        -94.6594048
                    0.00323487078         85.8024158      0.00766355661         86.8006168       0.0124615374         87.6257756       0.0130138521         87.1753639
                    0.00294998366        -94.6594048      0.00449472279        -94.1684247        0.999661667        -2.27711585      0.00641159989        -93.8027357
                    0.00183399326         85.1818279      0.00323487078         85.8024158       0.0130138521         87.1753639       0.0129516455         87.7675496
                    0.00171640646        -95.1033896      0.00294998366        -94.6594048      0.00641159989        -93.8027357        0.999692419        -2.27458501
                      0.999692419        -2.27458501      0.00641159989        -93.8027357      0.00294998366        -94.6594048      0.00171640646        -95.1033896
                     0.0129516455         87.7675496       0.0130138521         87.1753639      0.00323487078         85.8024158      0.00183399326         85.1818279
                    0.00641159989        -93.8027357        0.999661667        -2.27711585      0.00449472279        -94.1684247      0.00294998366        -94.6594048
                     0.0130138521         87.1753639       0.0124615374         87.6257756      0.00766355661         86.8006168      0.00323487078         85.8024158
                    0.00294998366        -94.6594048      0.00449472279        -94.1684247        0.999661667        -2.27711585      0.00641159989        -93.8027357
                    0.00323487078         85.8024158      0.00766355661         86.8006168       0.0124615374         87.6257756       0.0130138521         87.1753639
                    0.00171640646        -95.1033896      0.00294998366        -94.6594048      0.00641159989        -93.8027357        0.999692419        -2.27458501
                    0.00183399326         85.1818279      0.00323487078         85.8024158       0.0130138521         87.1753639       0.0129516455         87.7675496

         300000000      0.0194510001          86.421826       0.0194963498         85.8072026      0.00484468524         83.7073486      0.00274613355         82.7764461
                      0.999387233        -3.40879994      0.00961513703        -95.7872052      0.00441902719        -96.9875489      0.00257046067         -97.653007
                     0.0194963498         85.8072026       0.0187140595         86.1993196       0.0114786785          85.234273      0.00484468524         83.7073486
                    0.00961513703        -95.7872052        0.999318772        -3.41242278      0.00673679284        -96.3021007      0.00441902719        -96.9875489
                    0.00484468524         83.7073486       0.0114786785          85.234273       0.0187140595         86.1993196       0.0194963498         85.8072026
                    0.00441902719        -96.9875489      0.00673679284        -96.3021007        0.999318772        -3.41242278      0.00961513703        -95.7872052
                    0.00274613355         82.7764461      0.00484468524         83.7073486       0.0194963498         85.8072026       0.0194510001          86.421826
                    0.00257046067         -97.653007      0.00441902719        -96.9875489      0.00961513703        -95.7872052        0.999387233        -3.40879994
                      0.999387233        -3.40879994      0.00961513703        -95.7872052      0.00441902719        -96.9875489      0.00257046067         -97.653007
                     0.0194510001          86.421826       0.0194963498         85.8072026      0.00484468524         83.7073486      0.00274613355         82.7764461
                    0.00961513703        -95.7872052        0.999318772        -3.41242278      0.00673679284        -96.3021007      0.00441902719        -96.9875489
                     0.0194963498         85.8072026       0.0187140595         86.1993196       0.0114786785          85.234273      0.00484468524         83.7073486
                    0.00441902719        -96.9875489      0.00673679284        -96.3021007        0.999318772        -3.41242278      0.00961513703        -95.7872052
                    0.00484468524         83.7073486       0.0114786785          85.234273       0.0187140595         86.1993196       0.0194963498         85.8072026
                    0.00257046067         -97.653007      0.00441902719        -96.9875489      0.00961513703        -95.7872052        0.999387233        -3.40879994
                    0.00274613355         82.7764461      0.00484468524         83.7073486       0.0194963498         85.8072026       0.0194510001          86.421826

         400000000      0.0259417783         85.0792438       0.0259565429         84.4411664        0.006445428         81.6154938      0.00365245986         80.3745357
                      0.998982042        -4.54145597       0.0128092505        -97.7691252      0.00588093993        -99.3123751       0.0034195772        -100.199004
                     0.0259565429         84.4411664       0.0249557432         84.7766194       0.0152768522         83.6709131        0.006445428         81.6154938
                     0.0128092505        -97.7691252        0.998861303        -4.54597919      0.00896966976        -98.4325466      0.00588093993        -99.3123751
                      0.006445428         81.6154938       0.0152768522         83.6709131       0.0249557432         84.7766194       0.0259565429         84.4411664
                    0.00588093993        -99.3123751      0.00896966976        -98.4325466        0.998861303        -4.54597919       0.0128092505        -97.7691252
                    0.00365245986         80.3745357        0.006445428         81.6154938       0.0259565429         84.4411664       0.0259417783         85.0792438
                     0.0034195772        -100.199004      0.00588093993        -99.3123751       0.0128092505        -97.7691252        0.998982042        -4.54145597
                      0.998982042        -4.54145597       0.0128092505        -97.7691252      0.00588093993        -99.3123751       0.0034195772        -100.199004
                     0.0259417783         85.0792438       0.0259565429         84.4411664        0.006445428         81.6154938      0.00365245986         80.3745357
                     0.0128092505        -97.7691252        0.998861303        -4.54597919      0.00896966976        -98.4325466      0.00588093993        -99.3123751
                     0.0259565429         84.4411664       0.0249557432         84.7766194       0.0152768522         83.6709131        0.006445428         81.6154938
                    0.00588093993        -99.3123751      0.00896966976        -98.4325466        0.998861303        -4.54597919       0.0128092505        -97.7691252
                      0.006445428         81.6154938       0.0152768522         83.6709131       0.0249557432         84.7766194       0.0259565429         84.4411664
                     0.0034195772        -100.199004      0.00588093993        -99.3123751       0.0128092505        -97.7691252        0.998982042        -4.54145597
                    0.00365245986         80.3745357        0.006445428         81.6154938       0.0259565429         84.4411664       0.0259417783         85.0792438

         500000000      0.0324148447         83.7400238       0.0323884199         83.0778771      0.00803415673          79.527957       0.0045510841         77.9772327
                      0.998478116        -5.67241517       0.0159896887        -99.7477585       0.0073334052        -101.632818      0.00426215641        -102.740148
                     0.0323884199         83.0778771       0.0311767248         83.3579814       0.0190531109         82.1114794      0.00803415673          79.527957
                     0.0159896887        -99.7477585        0.998290889        -5.67758866       0.0111898638        -100.558759       0.0073334052        -101.632818
                    0.00803415673          79.527957       0.0190531109         82.1114794       0.0311767248         83.3579814       0.0323884199         83.0778771
                     0.0073334052        -101.632818       0.0111898638        -100.558759        0.998290889        -5.67758866       0.0159896887        -99.7477585
                     0.0045510841         77.9772327      0.00803415673          79.527957       0.0323884199         83.0778771       0.0324148447         83.7400238
                    0.00426215641        -102.740148       0.0073334052        -101.632818       0.0159896887        -99.7477585        0.998478116        -5.67241517
                      0.998478116        -5.67241517       0.0159896887        -99.7477585       0.0073334052        -101.632818      0.00426215641        -102.740148
                     0.0324148447         83.7400238       0.0323884199         83.0778771      0.00803415673          79.527957       0.0045510841         77.9772327
                     0.0159896887        -99.7477585        0.998290889        -5.67758866       0.0111898638        -100.558759       0.0073334052        -101.632818
                     0.0323884199         83.0778771       0.0311767248         83.3579814       0.0190531109         82.1114794      0.00803415673          79.527957
                     0.0073334052        -101.632818       0.0111898638        -100.558759        0.998290889        -5.67758866       0.0159896887        -99.7477585
                    0.00803415673          79.527957       0.0190531109         82.1114794       0.0311767248         83.3579814       0.0323884199         83.0778771
                    0.00426215641        -102.740148       0.0073334052        -101.632818       0.0159896887        -99.7477585        0.998478116        -5.67241517
                     0.0045510841         77.9772327      0.00803415673          79.527957       0.0323884199         83.0778771       0.0324148447         83.7400238

         600000000      0.0388623909         82.4045485       0.0387858878         81.7179606      0.00960799719         77.4458202       0.0054401644         75.5856595
                      0.997877128        -6.80147739       0.0191524956        -101.722362      0.00877416182         -103.94782      0.00509663621        -105.275225
                     0.0387858878         81.7179606       0.0373685018         81.9438944       0.0228025192         80.5569075      0.00960799719         77.4458202
                     0.0191524956        -101.722362        0.997609653        -6.80699411       0.0133940542        -102.679741      0.00877416182         -103.94782
                    0.00960799719         77.4458202       0.0228025192         80.5569075       0.0373685018         81.9438944       0.0387858878         81.7179606
                    0.00877416182         -103.94782       0.0133940542        -102.679741        0.997609653        -6.80699411       0.0191524956        -101.722362
                     0.0054401644         75.5856595      0.00960799719         77.4458202       0.0387858878         81.7179606       0.0388623909         82.4045485
                    0.00509663621        -105.275225      0.00877416182         -103.94782       0.0191524956        -101.722362        0.997877128        -6.80147739
                      0.997877128        -6.80147739       0.0191524956        -101.722362      0.00877416182         -103.94782      0.00509663621        -105.275225
                     0.0388623909         82.4045485       0.0387858878         81.7179606      0.00960799719         77.4458202       0.0054401644         75.5856595
                     0.0191524956        -101.722362        0.997609653        -6.80699411       0.0133940542        -102.679741      0.00877416182         -103.94782
                     0.0387858878         81.7179606       0.0373685018         81.9438944       0.0228025192         80.5569075      0.00960799719         77.4458202
                    0.00877416182         -103.94782       0.0133940542        -102.679741        0.997609653        -6.80699411       0.0191524956        -101.722362
                    0.00960799719         77.4458202       0.0228025192         80.5569075       0.0373685018         81.9438944       0.0387858878         81.7179606
                    0.00509663621        -105.275225      0.00877416182         -103.94782       0.0191524956        -101.722362        0.997877128        -6.80147739
                     0.0054401644         75.5856595      0.00960799719         77.4458202       0.0387858878         81.7179606       0.0388623909         82.4045485

         700000000      0.0452773461         81.0732613       0.0451429165         80.3620349         0.01116416         75.3701397      0.00631791536         73.2009186
                       0.99718113        -7.92841746        0.022293917        -103.692203       0.0102010161        -106.256346       0.0059215012         -107.80305
                     0.0451429165         80.3620349       0.0435233457         80.5349156       0.0265202498         79.0081156         0.01116416         75.3701397
                      0.022293917        -103.692203        0.996820183        -7.93391568        0.015579059        -104.794512       0.0102010161        -106.256346
                       0.01116416         75.3701397       0.0265202498         79.0081156       0.0435233457         80.5349156       0.0451429165         80.3620349
                     0.0102010161        -106.256346        0.015579059        -104.794512        0.996820183        -7.93391568        0.022293917        -103.692203
                    0.00631791536         73.2009186         0.01116416         75.3701397       0.0451429165         80.3620349       0.0452773461         81.0732613
                     0.0059215012         -107.80305       0.0102010161        -106.256346        0.022293917        -103.692203         0.99718113        -7.92841746
                       0.99718113        -7.92841746        0.022293917        -103.692203       0.0102010161        -106.256346       0.0059215012         -107.80305
                     0.0452773461         81.0732613       0.0451429165         80.3620349         0.01116416         75.3701397      0.00631791536         73.2009186
                      0.022293917        -103.692203        0.996820183        -7.93391568        0.015579059        -104.794512       0.0102010161        -106.256346
                     0.0451429165         80.3620349       0.0435233457         80.5349156       0.0265202498         79.0081156         0.01116416         75.3701397
                     0.0102010161        -106.256346        0.015579059        -104.794512        0.996820183        -7.93391568        0.022293917        -103.692203
                       0.01116416         75.3701397       0.0265202498         79.0081156       0.0435233457         80.5349156       0.0451429165         80.3620349
                     0.0059215012         -107.80305       0.0102010161        -106.256346        0.022293917        -103.692203         0.99718113        -7.92841746
