! Created Thu Jun  4 23:16:58 2020
# hz S ma R 50
! 8 Port Network Data from SP1.SP block
! freq  magS11  angS11  magS12  angS12  magS13  angS13  magS14  angS14  
!       magS15  angS15  magS16  angS16  magS17  angS17  magS18  angS18  
!       magS21  angS21  magS22  angS22  magS23  angS23  magS24  angS24  
!       magS25  angS25  magS26  angS26  magS27  angS27  magS28  angS28  
!       magS31  angS31  magS32  angS32  magS33  angS33  magS34  angS34  
!       magS35  angS35  magS36  angS36  magS37  angS37  magS38  angS38  
!       magS41  angS41  magS42  angS42  magS43  angS43  magS44  angS44  
!       magS45  angS45  magS46  angS46  magS47  angS47  magS48  angS48  
!       magS51  angS51  magS52  angS52  magS53  angS53  magS54  angS54  
!       magS55  angS55  magS56  angS56  magS57  angS57  magS58  angS58  
!       magS61  angS61  magS62  angS62  magS63  angS63  magS64  angS64  
!       magS65  angS65  magS66  angS66  magS67  angS67  magS68  angS68  
!       magS71  angS71  magS72  angS72  magS73  angS73  magS74  angS74  
!       magS75  angS75  magS76  angS76  magS77  angS77  magS78  angS78  
!       magS81  angS81  magS82  angS82  magS83  angS83  magS84  angS84  
!       magS85  angS85  magS86  angS86  magS87  angS87  magS88  angS88  
!     
         100000000     0.00648509488         86.4917435      0.00650269728         88.1315036      0.00153001176         87.3190732     0.000822223838         87.0965385
                      0.999491624        -1.16120168      0.00308278319        -92.3151159      0.00139627184        -92.9642105     0.000774052126        -93.0661535
                    0.00650269726         88.1315029      0.00627468959          86.299428      0.00380152639         87.5937467      0.00153001678         87.3181595
                    0.00308278357         -92.314762        0.999478485        -1.16318477       0.0021730714        -93.1655272       0.0013967402        -92.9641475
                     0.0015300117         87.3190615      0.00380152664         87.5937547      0.00626970968         86.2976596      0.00650438435         88.1336287
                    0.00139627234        -92.9637313      0.00217307161        -93.1655118        0.999478437         -1.1631287        0.003083715        -92.3098011
                   0.000822223997         87.0965704      0.00153001663         87.3181493       0.0065043843         88.1336278      0.00650120882          86.517369
                   0.000774052281        -93.0662428      0.00139673956        -92.9645509      0.00308371423        -92.3100287        0.999494122        -1.16088774
                      0.999491624        -1.16120168       0.0030827836        -92.3147612      0.00139627232        -92.9637497     0.000774052381        -93.0661911
                    0.00648508779         86.4944224      0.00650270738          88.132969      0.00153001748         87.3254404     0.000822228632         87.1086515
                    0.00308278316        -92.3151165        0.999478485        -1.16318477      0.00217307173        -93.1655068      0.00139673949         -92.964555
                    0.00650270745         88.1329703      0.00627468459         86.3014961      0.00380153284         87.5961708      0.00153002231         87.3245832
                    0.00139627184        -92.9641995      0.00217307127        -93.1655332        0.999478437         -1.1631287      0.00308371423        -92.3100302
                    0.00153001751         87.3254253      0.00380153286          87.596169      0.00626970422         86.2998154      0.00650439463         88.1350672
                   0.000774052033        -93.0662024      0.00139674029        -92.9641366      0.00308371501        -92.3097995        0.999494122        -1.16088774
                   0.000822228658         87.1087141       0.0015300223         87.3245797      0.00650439466         88.1350666      0.00650120516         86.5197021

         200000000       0.012831302         85.9498705       0.0129554015         86.8319988       0.0030483527         85.4132315      0.00164003142         84.7646325
                      0.999055742        -2.30372153      0.00615488588        -94.1218003      0.00278137019        -95.1238348      0.00154353616         -95.495721
                     0.0129554014         86.8319988       0.0124044848         85.7330508      0.00755621865          86.203092      0.00304819178         85.4039091
                    0.00615432675        -94.1149655         0.99901746        -2.30738362      0.00431986951        -94.9674749      0.00278201329        -95.1239976
                    0.00304835247         85.4132281      0.00755621881         86.2030922       0.0123954908         85.7445894       0.0129597706         86.8326965
                     0.0027811451        -95.1196485      0.00431991939        -94.9633726        0.999017878         -2.3072814      0.00615685875        -94.1026416
                    0.00164003154         84.7646442      0.00304819178         85.4039095       0.0129597706         86.8326964       0.0128634273         85.9848007
                    0.00154350994        -95.4962607      0.00278235286         -95.124277      0.00615714988        -94.1100225         0.99906135        -2.30325103
                      0.999055742        -2.30372153      0.00615432679        -94.1149655      0.00278114505        -95.1196503      0.00154350985        -95.4962537
                     0.0128269809          85.963998       0.0129562591         86.8324193      0.00304818284          85.410019      0.00163961592         84.7987636
                    0.00615488586        -94.1218003         0.99901746        -2.30738362      0.00431991954        -94.9633718      0.00278235278        -95.1242786
                     0.0129562592         86.8324192       0.0124049507         85.7234706       0.0075581885         86.2188568      0.00304842227         85.4162879
                    0.00278137029        -95.1238333      0.00431986935         -94.967476        0.999017878         -2.3072814      0.00615714984        -94.1100233
                    0.00304818264         85.4100137       0.0075581885         86.2188566       0.0123948537         85.7141712        0.012958753         86.8342954
                    0.00154353575        -95.4957243      0.00278201337        -95.1239953       0.0061568588        -94.1026414         0.99906135        -2.30325103
                    0.00163961597         84.7987826      0.00304842223         85.4162876        0.012958753          86.834295       0.0128645251         85.9856512

         300000000      0.0191554061         85.0046785       0.0193836775         85.5403748      0.00455874386          83.394504       0.0024524206         82.4004002
                      0.998590498        -3.44111103      0.00922439739        -96.0080263      0.00416001651        -97.3537922      0.00230895298        -97.9971398
                     0.0193836775         85.5403748       0.0185145441         84.7222529       0.0112947304          84.770259      0.00455859444         83.3873696
                    0.00922429151        -96.0041932         0.99851364        -3.44631329      0.00645763833        -96.9306518      0.00416121135        -97.3552478
                    0.00455874368         83.3945038       0.0112947305         84.7702589       0.0185010941         84.7280339       0.0193893359         85.5402713
                     0.0041599548        -97.3502028      0.00645764904        -96.9286663        0.998514628        -3.44618575      0.00922781549        -96.0002992
                    0.00245242067         82.4004034      0.00455859447         83.3873697       0.0193893359         85.5402712        0.019209224         85.0384794
                    0.00230895563         -97.997239       0.0041613631        -97.3573077       0.0092280067        -96.0044722        0.998598777        -3.44056472
                      0.998590498        -3.44111103      0.00922429154        -96.0041933      0.00415995479        -97.3502033      0.00230895559        -97.9972372
                     0.0191542861         85.0196524       0.0193838948         85.5430979      0.00455859526         83.4084311      0.00245225432         82.4421872
                    0.00922439737        -96.0080263         0.99851364        -3.44631329      0.00645764914        -96.9286664      0.00416136306         -97.357308
                     0.0193838948         85.5430978        0.018514572         84.7243636       0.0112958093         84.7786277       0.0045586533         83.4061933
                    0.00416001655         -97.353792      0.00645763823        -96.9306517        0.998514628        -3.44618575      0.00922800667        -96.0044726
                    0.00455859509         83.4084303       0.0112958093         84.7786276       0.0185002131         84.7214698       0.0193888915         85.5442323
                    0.00230895277        -97.9971381      0.00416121139        -97.3552473       0.0092278155        -96.0002992        0.998598777        -3.44056472
                    0.00245225436         82.4421932      0.00455865329         83.4061932       0.0193888915         85.5442322       0.0192093121         85.0433966

         400000000      0.0254656005         83.9095636       0.0257894333         84.2216048      0.00605946642         81.3535342      0.00325940449         80.0146652
                       0.99804792        -4.57581935       0.0122856891        -97.9349135      0.00553167725        -99.6191919      0.00306977197        -100.521359
                     0.0257894333         84.2216049       0.0246067386         83.5573622       0.0150145501         83.2880274      0.00605924629         81.3464057
                     0.0122857244        -97.9327387        0.997918298        -4.58236046      0.00858518117        -98.9549911      0.00553331609        -99.6223223
                    0.00605946635         81.3535345       0.0150145501         83.2880274       0.0245887913         83.5607283       0.0257967497         84.2214559
                    0.00553168996        -99.6166354      0.00858517493        -98.9542762         0.99791989        -4.58221781       0.0122903025        -97.9328375
                    0.00325940452         80.0146657      0.00605924631         81.3464058       0.0257967497         84.2214558       0.0255405268         83.9408582
                    0.00306977917        -100.521406      0.00553334456        -99.6242849       0.0122903766        -97.9350082        0.998058446        -4.57524182
                       0.99804792        -4.57581935       0.0122857244        -97.9327388      0.00553168995        -99.6166356      0.00306977915        -100.521405
                     0.0254656958         83.9226656       0.0257895902         84.2267871      0.00605943781          81.377235      0.00325934933         80.0639007
                      0.012285689        -97.9349134        0.997918298        -4.58236046      0.00858517496        -98.9542763      0.00553334454        -99.6242849
                     0.0257895903         84.2267871       0.0246067618         83.5648014       0.0150149976         83.2972794      0.00605929221         81.3714956
                    0.00553167726        -99.6191919      0.00858518113         -98.954991         0.99791989        -4.58221781       0.0122903766        -97.9350084
                    0.00605943774          81.377235       0.0150149976         83.2972793       0.0245885079         83.5656812       0.0257967554         84.2269209
                     0.0030697719        -100.521358       0.0055333161        -99.6223222       0.0122903025        -97.9328374        0.998058446        -4.57524182
                    0.00325934935         80.0639025      0.00605929221         81.3714955       0.0257967554         84.2269208       0.0255404382         83.9497308

         500000000      0.0317544396         82.7400871       0.0321636085         82.8903024      0.00754812367         79.3056283      0.00405929973         77.6146977
                      0.997417012        -5.70769311        0.015333467        -99.8774948      0.00689397294        -101.899482      0.00382460697           -103.055
                     0.0321636085         82.8903024       0.0306739572         82.3182903       0.0187096138         81.7867293       0.0075477964         79.2977688
                     0.0153335195        -99.8756265        0.997220873        -5.71530804       0.0106994526        -101.006074      0.00689598187        -101.903589
                    0.00754812366         79.3056284       0.0187096138         81.7867293       0.0306517906         82.3208036       0.0321727463         82.8899171
                    0.00689400746        -101.897158       0.0106994459        -101.005952        0.997223043        -5.71515554       0.0153392535        -99.8778653
                    0.00405929974         77.6146975      0.00754779641         79.2977689       0.0321727463          82.889917       0.0318502505         82.7705322
                      0.003824614        -103.055016      0.00689595752        -101.905575       0.0153392364        -99.8792012        0.997429369        -5.70711553
                      0.997417012        -5.70769311       0.0153335195        -99.8756265      0.00689400745        -101.897158      0.00382461399        -103.055016
                     0.0317545914         82.7540495       0.0321639971         82.8971953      0.00754818629         79.3363233      0.00405923291         77.6736959
                     0.0153334669        -99.8774948        0.997220873        -5.71530804       0.0106994459        -101.005952      0.00689595752        -101.905575
                     0.0321639971         82.8971952       0.0306740114         82.3286942       0.0187099038          81.798366      0.00754785818         79.3288713
                    0.00689397295        -101.899482       0.0106994526        -101.006074        0.997223043        -5.71515554       0.0153392364        -99.8792013
                    0.00754818628         79.3363233       0.0187099038          81.798366       0.0306518257         82.3311752       0.0321731066         82.8967228
                    0.00382460696           -103.055      0.00689598187        -101.903589       0.0153392535        -99.8778653        0.997429369        -5.70711553
                    0.00405923291         77.6736964      0.00754785818         79.3288713       0.0321731067         82.8967228       0.0318503486          82.782251

         600000000      0.0380146622         81.5315308       0.0384996626          81.557091      0.00902221471         77.2569151      0.00485033852         75.2098861
                      0.996699632        -6.83661967        0.018363825        -101.824102      0.00824480727        -104.183067      0.00457206301        -105.589707
                     0.0384996626          81.557091       0.0367089884         81.0400879       0.0223755518         80.2808564      0.00902175666         77.2480544
                     0.0183638924        -101.822015        0.996423753        -6.84499477       0.0127975877        -103.068107      0.00824715699        -104.187704
                    0.00902221471         77.2569151       0.0223755518         80.2808564       0.0366828209         81.0421993        0.038510632         81.5563681
                    0.00824485825         -104.18049        0.012797584        -103.068174        0.996426439        -6.84483563       0.0183708262        -101.825726
                    0.00485033851         75.2098859      0.00902175666         77.2480544        0.038510632         81.5563681        0.038131578         81.5619696
                    0.00457207191        -105.589712      0.00824710635         -104.18995       0.0183707496         -101.82693        0.996713396        -6.83606473
                      0.996699632        -6.83661968       0.0183638924        -101.822015      0.00824485825         -104.18049      0.00457207191        -105.589712
                     0.0380147381         81.5478678       0.0385003513         81.5653489      0.00902232411         77.2937685      0.00485019285         75.2798827
                      0.018363825        -101.824102        0.996423753        -6.84499477        0.012797584        -103.068174      0.00824710635         -104.18995
                     0.0385003513         81.5653489        0.036709083         81.0527834       0.0223759385          80.294855       0.0090218301         77.2851588
                    0.00824480727        -104.183067       0.0127975877        -103.068107        0.996426439        -6.84483563       0.0183707496         -101.82693
                    0.00902232411         77.2937684       0.0223759385          80.294855       0.0366829355         81.0556083       0.0385113017          81.564458
                    0.00457206301        -105.589707      0.00824715698        -104.187703       0.0183708262        -101.825726        0.996713396        -6.83606473
                    0.00485019285         75.2798828       0.0090218301         77.2851587       0.0385113017          81.564458        0.038131893         81.5760694

         700000000      0.0442404021         80.3014341       0.0447927679         80.2261908       0.0104792641         75.2107395      0.00563090825         72.8064935
                      0.995898763        -7.96261733       0.0213735519         -103.76983      0.00958234311        -106.464422      0.00531084482        -108.120632
                     0.0447927679         80.2261908       0.0427054806         79.7402007       0.0260086594         78.7760639       0.0104786559          75.200796
                     0.0213736597        -103.767389        0.995530422         -7.9713925       0.0148769497        -105.133326      0.00958502298        -106.469404
                     0.0104792641         75.2107394       0.0260086594         78.7760639       0.0426754298         79.7420105       0.0448055356         80.2251191
                    0.00958242147        -106.461416        0.014876944        -105.133382        0.995533566        -7.97122924       0.0213818052         -103.77232
                    0.00563090825         72.8064934       0.0104786559          75.200796       0.0448055356         80.2251191       0.0443787172         80.3320679
                    0.00531085812        -108.120648      0.00958494761        -106.472018       0.0213816941        -103.773744        0.995913508        -7.96210145
                      0.995898763        -7.96261733       0.0213736597        -103.767389      0.00958242147        -106.461416      0.00531085812        -108.120648
                     0.0442406086         80.3205372       0.0447937817          80.235727       0.0104793892         75.2535253      0.00563063714         72.8878927
                     0.0213735519         -103.76983        0.995530422         -7.9713925        0.014876944        -105.133382      0.00958494761        -106.472018
                     0.0447937817          80.235727       0.0427056722         79.7549784       0.0260092471          78.792289       0.0104787328         75.2439125
                    0.00958234311        -106.464422       0.0148769497        -105.133326        0.995533566        -7.97122924       0.0213816941        -103.773745
                     0.0104793892         75.2535253       0.0260092471          78.792289       0.0426756329         79.7575443       0.0448065176         80.2344727
                    0.00531084482        -108.120632      0.00958502298        -106.469404       0.0213818052         -103.77232        0.995913508        -7.96210145
