! Created Sat Jun  6 10:42:22 2020
# hz S ma R 50
! 8 Port Network Data from SP1.SP block
! freq  magS11  angS11  magS12  angS12  magS13  angS13  magS14  angS14  
!       magS15  angS15  magS16  angS16  magS17  angS17  magS18  angS18  
!       magS21  angS21  magS22  angS22  magS23  angS23  magS24  angS24  
!       magS25  angS25  magS26  angS26  magS27  angS27  magS28  angS28  
!       magS31  angS31  magS32  angS32  magS33  angS33  magS34  angS34  
!       magS35  angS35  magS36  angS36  magS37  angS37  magS38  angS38  
!       magS41  angS41  magS42  angS42  magS43  angS43  magS44  angS44  
!       magS45  angS45  magS46  angS46  magS47  angS47  magS48  angS48  
!       magS51  angS51  magS52  angS52  magS53  angS53  magS54  angS54  
!       magS55  angS55  magS56  angS56  magS57  angS57  magS58  angS58  
!       magS61  angS61  magS62  angS62  magS63  angS63  magS64  angS64  
!       magS65  angS65  magS66  angS66  magS67  angS67  magS68  angS68  
!       magS71  angS71  magS72  angS72  magS73  angS73  magS74  angS74  
!       magS75  angS75  magS76  angS76  magS77  angS77  magS78  angS78  
!       magS81  angS81  magS82  angS82  magS83  angS83  magS84  angS84  
!       magS85  angS85  magS86  angS86  magS87  angS87  magS88  angS88  
!     
         100000000     0.00626580964         86.0422005        0.006537847         87.9861464      0.00152413471         87.3054225      0.00081803195         87.1331343
                      0.999353213        -1.15522618      0.00301858167         -92.236781      0.00138882729        -92.9959474     0.000769374001        -93.0168186
                      0.006537847         87.9861464      0.00603046396          85.817108      0.00380282301         87.4040952      0.00152680875         87.3064716
                    0.00301858167         -92.236781        0.999337684        -1.15830135      0.00213532629        -93.2847208      0.00139185661        -92.9933204
                    0.00152413471         87.3054225      0.00380282301         87.4040952      0.00601834492         85.7962634      0.00655491338         87.9996077
                    0.00138882729        -92.9959474      0.00213532629        -93.2847208        0.999336661         -1.1572216      0.00302735128        -92.2077668
                    0.00081803195         87.1331343      0.00152680875         87.3064716      0.00655491338         87.9996077       0.0062514869         86.0385125
                   0.000769374001        -93.0168186      0.00139185661        -92.9933204      0.00302735128        -92.2077668        0.999352888        -1.15569248
                      0.999353213        -1.15522618      0.00301858167         -92.236781      0.00138882729        -92.9959474     0.000769374001        -93.0168186
                    0.00626580964         86.0422005        0.006537847         87.9861464      0.00152413471         87.3054225      0.00081803195         87.1331343
                    0.00301858167         -92.236781        0.999337684        -1.15830135      0.00213532629        -93.2847208      0.00139185661        -92.9933204
                      0.006537847         87.9861464      0.00603046396          85.817108      0.00380282301         87.4040952      0.00152680875         87.3064716
                    0.00138882729        -92.9959474      0.00213532629        -93.2847208        0.999336661         -1.1572216      0.00302735128        -92.2077668
                    0.00152413471         87.3054225      0.00380282301         87.4040952      0.00601834492         85.7962634      0.00655491338         87.9996077
                   0.000769374001        -93.0168186      0.00139185661        -92.9933204      0.00302735128        -92.2077668        0.999352888        -1.15569248
                    0.00081803195         87.1331343      0.00152680875         87.3064716      0.00655491338         87.9996077       0.0062514869         86.0385125

         200000000      0.0124508812         85.8466151       0.0130464029         86.8585546      0.00304147367         85.4719202      0.00163305485         84.8762937
                      0.999037543        -2.30041208      0.00603241577        -94.0737935      0.00277135389        -95.0533301      0.00153608888        -95.4060468
                     0.0130464029         86.8585546       0.0119777861         85.6061266      0.00757985781         86.2460443      0.00304681583         85.4707858
                    0.00603241577        -94.0737935        0.998998663        -2.30637314      0.00425631459        -94.9286586      0.00277740699        -95.0526015
                    0.00304147367         85.4719202      0.00757985781         86.2460443       0.0119528286          85.591673       0.0130808903         86.8680556
                    0.00277135389        -95.0533301      0.00425631459        -94.9286586        0.998997132        -2.30419314      0.00605031001        -94.0526308
                    0.00163305485         84.8762937      0.00304681583         85.4707858       0.0130808903         86.8680556       0.0124224652         85.8417012
                    0.00153608888        -95.4060468      0.00277740699        -95.0526015      0.00605031001        -94.0526308        0.999036783        -2.30134324
                      0.999037543        -2.30041208      0.00603241577        -94.0737935      0.00277135389        -95.0533301      0.00153608888        -95.4060468
                     0.0124508812         85.8466151       0.0130464029         86.8585546      0.00304147367         85.4719202      0.00163305485         84.8762937
                    0.00603241577        -94.0737935        0.998998663        -2.30637314      0.00425631459        -94.9286586      0.00277740699        -95.0526015
                     0.0130464029         86.8585546       0.0119777861         85.6061266      0.00757985781         86.2460443      0.00304681583         85.4707858
                    0.00277135389        -95.0533301      0.00425631459        -94.9286586        0.998997132        -2.30419314      0.00605031001        -94.0526308
                    0.00304147367         85.4719202      0.00757985781         86.2460443       0.0119528286          85.591673       0.0130808903         86.8680556
                    0.00153608888        -95.4060468      0.00277740699        -95.0526015      0.00605031001        -94.0526308        0.999036783        -2.30134324
                    0.00163305485         84.8762937      0.00304681583         85.4707858       0.0130808903         86.8680556       0.0124224652         85.8417012

         300000000      0.0185818544         84.9156353       0.0195197879          85.581678      0.00454815427         83.4855149      0.00244285906          82.528855
                      0.998569725        -3.43568291       0.0090406599        -95.9548359      0.00414568139        -97.2726474       0.0022982409         -97.895199
                     0.0195197879          85.581678       0.0178702904         84.6159411        0.011328949         84.8216587      0.00455610537         83.4831191
                     0.0090406599        -95.9548359        0.998493157        -3.44434312      0.00636303741        -96.8819482      0.00415471813        -97.2726385
                    0.00454815427         83.4855149        0.011328949         84.8216587       0.0178320975         84.6017126       0.0195719144          85.590862
                    0.00414568139        -97.2726474      0.00636303741        -96.8819482        0.998490862        -3.44104409      0.00906777944        -95.9350908
                    0.00244285906          82.528855      0.00455610537         83.4831191       0.0195719144          85.590862       0.0185394024         84.9085621
                     0.0022982409         -97.895199      0.00415471813        -97.2726385      0.00906777944        -95.9350908        0.998568185        -3.43706763
                      0.998569725        -3.43568291       0.0090406599        -95.9548359      0.00414568139        -97.2726474       0.0022982409         -97.895199
                     0.0185818544         84.9156353       0.0195197879          85.581678      0.00454815427         83.4855149      0.00244285906          82.528855
                     0.0090406599        -95.9548359        0.998493157        -3.44434312      0.00636303741        -96.8819482      0.00415471813        -97.2726385
                     0.0195197879          85.581678       0.0178702904         84.6159411        0.011328949         84.8216587      0.00455610537         83.4831191
                    0.00414568139        -97.2726474      0.00636303741        -96.8819482        0.998490862        -3.44104409      0.00906777944        -95.9350908
                    0.00454815427         83.4855149        0.011328949         84.8216587       0.0178320975         84.6017126       0.0195719144          85.590862
                     0.0022982409         -97.895199      0.00415471813        -97.2726385      0.00906777944        -95.9350908        0.998568185        -3.43706763
                    0.00244285906          82.528855      0.00455610537         83.4831191       0.0195719144          85.590862       0.0185394024         84.9085621

         400000000      0.0246966305          83.827585       0.0259713327         84.2759642      0.00604578718         81.4746119      0.00324760241          80.159922
                      0.998027247        -4.56819962       0.0120414527        -97.8756667      0.00551326371        -99.5256971      0.00305610191        -100.405273
                     0.0259713327         84.2759642       0.0237443276         83.4591763       0.0150596242         83.3541437      0.00605633229         81.4713965
                     0.0120414527        -97.8756667        0.997898929        -4.57937216       0.0084597946        -98.8966475      0.00552527699        -99.5260259
                    0.00604578718         81.4746119       0.0150596242         83.3541437       0.0236926679         83.4447123       0.0260411835           84.28533
                    0.00551326371        -99.5256971       0.0084597946        -98.8966475        0.997895783         -4.5749479       0.0120777867        -97.8550324
                    0.00324760241          80.159922      0.00605633229         81.4713965       0.0260411835           84.28533       0.0246400768         83.8184057
                    0.00305610191        -100.405273      0.00552527699        -99.5260259       0.0120777867        -97.8550324        0.998024736        -4.57003038
                      0.998027247        -4.56819962       0.0120414527        -97.8756667      0.00551326371        -99.5256971      0.00305610191        -100.405273
                     0.0246966305          83.827585       0.0259713327         84.2759642      0.00604578718         81.4746119      0.00324760241          80.159922
                     0.0120414527        -97.8756667        0.997898929        -4.57937216       0.0084597946        -98.8966475      0.00552527699        -99.5260259
                     0.0259713327         84.2759642       0.0237443276         83.4591763       0.0150596242         83.3541437      0.00605633229         81.4713965
                    0.00551326371        -99.5256971       0.0084597946        -98.8966475        0.997895783         -4.5749479       0.0120777867        -97.8550324
                    0.00604578718         81.4746119       0.0150596242         83.3541437       0.0236926679         83.4447123       0.0260411835           84.28533
                    0.00305610191        -100.405273      0.00552527699        -99.5260259       0.0120777867        -97.8550324        0.998024736        -4.57003038
                    0.00324760241          80.159922      0.00605633229         81.4713965       0.0260411835           84.28533       0.0246400768         83.8184057

         500000000      0.0307891421         82.6653719       0.0323915978          82.957383      0.00753193052         79.4520131      0.00404543665         77.7782642
                       0.99739933        -5.69783308        0.015029538        -99.8120204      0.00687180914         -101.79271       0.0038082635        -102.925277
                     0.0323915978          82.957383       0.0295932313          82.225319       0.0187663972         81.8688221      0.00754505958          79.447948
                      0.015029538        -99.8120204        0.997205669        -5.71126405       0.0105437577        -100.937121      0.00688678861        -101.793356
                    0.00753193052         79.4520131       0.0187663972         81.8688221       0.0295279226         82.2106146       0.0324792003         82.9670831
                    0.00687180914         -101.79271       0.0105437577        -100.937121        0.997201601        -5.70570812        0.015075133        -99.7897937
                    0.00404543665         77.7782642      0.00754505958          79.447948       0.0324792003         82.9670831       0.0307184502         82.6541079
                     0.0038082635        -102.925277      0.00688678861        -101.793356        0.015075133        -99.7897937        0.997395664        -5.70010184
                       0.99739933        -5.69783308        0.015029538        -99.8120204      0.00687180914         -101.79271       0.0038082635        -102.925277
                     0.0307891421         82.6653719       0.0323915978          82.957383      0.00753193052         79.4520131      0.00404543665         77.7782642
                      0.015029538        -99.8120204        0.997205669        -5.71126405       0.0105437577        -100.937121      0.00688678861        -101.793356
                     0.0323915978          82.957383       0.0295932313          82.225319       0.0187663972         81.8688221      0.00754505958          79.447948
                    0.00687180914         -101.79271       0.0105437577        -100.937121        0.997201601        -5.70570812        0.015075133        -99.7897937
                    0.00753193052         79.4520131       0.0187663972         81.8688221       0.0295279226         82.2106146       0.0324792003         82.9670831
                     0.0038082635        -102.925277      0.00688678861        -101.793356        0.015075133        -99.7897937        0.997395664        -5.70010184
                    0.00404543665         77.7782642      0.00754505958          79.447948       0.0324792003         82.9670831       0.0307184502         82.6541079

         600000000      0.0368537822         81.4640848       0.0387741956         81.6369521      0.00900393071         77.4262643      0.00483458041         75.3933403
                      0.996687866        -6.82451063       0.0180011048        -101.752155       0.0082192809        -104.062596      0.00455331061        -105.446417
                     0.0387741956         81.6369521       0.0354110373         80.9513496       0.0224448951         80.3786109      0.00901962436         77.4212915
                     0.0180011048        -101.752155        0.996415813         -6.8398989       0.0126122508        -102.988106      0.00823720809        -104.063575
                    0.00900393071         77.4262643       0.0224448951         80.3786109       0.0353319797         80.9364971       0.0388795287         81.6470705
                     0.0082192809        -104.062596       0.0126122508        -102.988106        0.996410774        -6.83320604       0.0180559678        -101.728076
                    0.00483458041         75.3933403      0.00901962436         77.4212915       0.0388795287         81.6470705       0.0367689139         81.4507528
                    0.00455331061        -105.446417      0.00823720809        -104.063575       0.0180559678        -101.728076        0.996682891        -6.82720902
                      0.996687866        -6.82451063       0.0180011048        -101.752155       0.0082192809        -104.062596      0.00455331061        -105.446417
                     0.0368537822         81.4640848       0.0387741956         81.6369521      0.00900393071         77.4262643      0.00483458041         75.3933403
                     0.0180011048        -101.752155        0.996415813         -6.8398989       0.0126122508        -102.988106      0.00823720809        -104.063575
                     0.0387741956         81.6369521       0.0354110373         80.9513496       0.0224448951         80.3786109      0.00901962436         77.4212915
                     0.0082192809        -104.062596       0.0126122508        -102.988106        0.996410774        -6.83320604       0.0180559678        -101.728076
                    0.00900393071         77.4262643       0.0224448951         80.3786109       0.0353319797         80.9364971       0.0388795287         81.6470705
                    0.00455331061        -105.446417      0.00823720809        -104.063575       0.0180559678        -101.728076        0.996682891        -6.82720902
                    0.00483458041         75.3933403      0.00901962436         77.4212915       0.0388795287         81.6470705       0.0367689139         81.4507528

         700000000      0.0428854628          80.240344       0.0451144734         80.3188284       0.0104592757         75.4022462      0.00561346621         73.0108083
                      0.995895612        -7.94827963       0.0209530165         -103.69141      0.00955387666        -106.330137      0.00528996153          -107.9636
                     0.0451144734         80.3188284       0.0411922117         79.6545187       0.0260913292         78.8889914        0.010477507         75.3963414
                     0.0209530165         -103.69141        0.995532591        -7.96527989       0.0146627245         -105.04239      0.00957472749        -106.331451
                     0.0104592757         75.4022462       0.0260913292         78.8889914        0.041099384         79.6395771       0.0452374917          80.329427
                    0.00955387666        -106.330137       0.0146627245         -105.04239        0.995526538         -7.9574464       0.0210171201        -103.665324
                    0.00561346621         73.0108083        0.010477507         75.3963414       0.0452374917          80.329427       0.0427863794         80.2249666
                    0.00528996153          -107.9636      0.00957472749        -106.331451       0.0210171201        -103.665324        0.995889198        -7.95139966
                      0.995895612        -7.94827963       0.0209530165         -103.69141      0.00955387666        -106.330137      0.00528996153          -107.9636
                     0.0428854628          80.240344       0.0451144734         80.3188284       0.0104592757         75.4022462      0.00561346621         73.0108083
                     0.0209530165         -103.69141        0.995532591        -7.96527989       0.0146627245         -105.04239      0.00957472749        -106.331451
                     0.0451144734         80.3188284       0.0411922117         79.6545187       0.0260913292         78.8889914        0.010477507         75.3963414
                    0.00955387666        -106.330137       0.0146627245         -105.04239        0.995526538         -7.9574464       0.0210171201        -103.665324
                     0.0104592757         75.4022462       0.0260913292         78.8889914        0.041099384         79.6395771       0.0452374917          80.329427
                    0.00528996153          -107.9636      0.00957472749        -106.331451       0.0210171201        -103.665324        0.995889198        -7.95139966
