! Created Sat Jun  6 10:41:17 2020
# hz S ma R 50
! 8 Port Network Data from SP1.SP block
! freq  magS11  angS11  magS12  angS12  magS13  angS13  magS14  angS14  
!       magS15  angS15  magS16  angS16  magS17  angS17  magS18  angS18  
!       magS21  angS21  magS22  angS22  magS23  angS23  magS24  angS24  
!       magS25  angS25  magS26  angS26  magS27  angS27  magS28  angS28  
!       magS31  angS31  magS32  angS32  magS33  angS33  magS34  angS34  
!       magS35  angS35  magS36  angS36  magS37  angS37  magS38  angS38  
!       magS41  angS41  magS42  angS42  magS43  angS43  magS44  angS44  
!       magS45  angS45  magS46  angS46  magS47  angS47  magS48  angS48  
!       magS51  angS51  magS52  angS52  magS53  angS53  magS54  angS54  
!       magS55  angS55  magS56  angS56  magS57  angS57  magS58  angS58  
!       magS61  angS61  magS62  angS62  magS63  angS63  magS64  angS64  
!       magS65  angS65  magS66  angS66  magS67  angS67  magS68  angS68  
!       magS71  angS71  magS72  angS72  magS73  angS73  magS74  angS74  
!       magS75  angS75  magS76  angS76  magS77  angS77  magS78  angS78  
!       magS81  angS81  magS82  angS82  magS83  angS83  magS84  angS84  
!       magS85  angS85  magS86  angS86  magS87  angS87  magS88  angS88  
!     
         100000000       0.006434781         86.2204139      0.00647856121         87.9739201      0.00151771665         87.2358351      0.00081185092         87.0390447
                      0.999369323         -1.1553471      0.00306767173        -92.2766251        0.001383755        -93.0633764     0.000763756364        -93.1232638
                    0.00647856121         87.9739201      0.00622522583          86.019901      0.00377988097         87.3935739      0.00151770827         87.2345888
                    0.00306767173        -92.2766251         0.99935532        -1.15727757      0.00215605534        -93.3041955      0.00138422573        -93.0649374
                    0.00151771665         87.2358351      0.00377988097         87.3935739      0.00621998283         86.0218318       0.0064803126         87.9789494
                      0.001383755        -93.0633764      0.00215605534        -93.3041955        0.999355528        -1.15722254       0.0030687609        -92.2554649
                    0.00081185092         87.0390447      0.00151770827         87.2345888       0.0064803126         87.9789494      0.00645242919         86.2591884
                   0.000763756364        -93.1232638      0.00138422573        -93.0649374       0.0030687609        -92.2554649        0.999373424         -1.1550547
                      0.999369323         -1.1553471      0.00306767173        -92.2766251        0.001383755        -93.0633764     0.000763756364        -93.1232638
                      0.006434781         86.2204139      0.00647856121         87.9739201      0.00151771665         87.2358351      0.00081185092         87.0390447
                    0.00306767173        -92.2766251         0.99935532        -1.15727757      0.00215605534        -93.3041955      0.00138422573        -93.0649374
                    0.00647856121         87.9739201      0.00622522583          86.019901      0.00377988097         87.3935739      0.00151770827         87.2345888
                      0.001383755        -93.0633764      0.00215605534        -93.3041955        0.999355528        -1.15722254       0.0030687609        -92.2554649
                    0.00151771665         87.2358351      0.00377988097         87.3935739      0.00621998283         86.0218318       0.0064803126         87.9789494
                   0.000763756364        -93.1232638      0.00138422573        -93.0649374       0.0030687609        -92.2554649        0.999373424         -1.1550547
                    0.00081185092         87.0390447      0.00151770827         87.2345888       0.0064803126         87.9789494      0.00645242919         86.2591884

         200000000      0.0127938005         85.9637872       0.0129277715         86.8399679      0.00302813734         85.4080262      0.00162028203         84.8015852
                      0.999057277        -2.30098598      0.00612927853        -94.1025383      0.00276075394        -95.1094363      0.00152444367        -95.4892046
                     0.0129277715         86.8399679       0.0123722232         85.7397697      0.00753401713         86.2257934      0.00302809912         85.4049445
                    0.00612927853        -94.1025383        0.999019662        -2.30467607      0.00429744291          -94.95246      0.00276167289         -95.112325
                    0.00302813734         85.4080262      0.00753401713         86.2257934       0.0123619904         85.7423341       0.0129314124         86.8428657
                    0.00276075394        -95.1094363      0.00429744291          -94.95246        0.999020283        -2.30457598      0.00613166766        -94.0900808
                    0.00162028203         84.8015852      0.00302809912         85.4049445       0.0129314124         86.8428657       0.0128306827         85.9935765
                    0.00152444367        -95.4892046      0.00276167289         -95.112325      0.00613166766        -94.0900808        0.999063286         -2.3004948
                      0.999057277        -2.30098598      0.00612927853        -94.1025383      0.00276075394        -95.1094363      0.00152444367        -95.4892046
                     0.0127938005         85.9637872       0.0129277715         86.8399679      0.00302813734         85.4080262      0.00162028203         84.8015852
                    0.00612927853        -94.1025383        0.999019662        -2.30467607      0.00429744291          -94.95246      0.00276167289         -95.112325
                     0.0129277715         86.8399679       0.0123722232         85.7397697      0.00753401713         86.2257934      0.00302809912         85.4049445
                    0.00276075394        -95.1094363      0.00429744291          -94.95246        0.999020283        -2.30457598      0.00613166766        -94.0900808
                    0.00302813734         85.4080262      0.00753401713         86.2257934       0.0123619904         85.7423341       0.0129314124         86.8428657
                    0.00152444367        -95.4892046      0.00276167289         -95.112325      0.00613166766        -94.0900808        0.999063286         -2.3004948
                    0.00162028203         84.8015852      0.00302809912         85.4049445       0.0129314124         86.8428657       0.0128306827         85.9935765

         300000000      0.0191023816         85.0207102        0.019342888         85.5537328      0.00452783164         83.4128552      0.00242336894          82.448613
                      0.998593602        -3.43704503       0.0091870936        -95.9871916      0.00412924273        -97.3336485      0.00228034774          -97.98105
                      0.019342888         85.5537328       0.0184670491         84.7359564       0.0112602589         84.7897623      0.00452769439         83.4075631
                     0.0091870936        -95.9871916        0.998517633         -3.4423012      0.00642396375        -96.9125265      0.00413054642        -97.3381675
                    0.00452783164         83.4128552       0.0112602589         84.7897623       0.0184520808         84.7386967        0.019348414         85.5549587
                    0.00412924273        -97.3336485      0.00642396375        -96.9125265         0.99851883        -3.44217458      0.00919059606        -95.9828556
                    0.00242336894          82.448613      0.00452769439         83.4075631        0.019348414         85.5549587       0.0191599818         85.0510937
                    0.00228034774          -97.98105      0.00413054642        -97.3381675      0.00919059606        -95.9828556        0.998602392        -3.43647417
                      0.998593602        -3.43704503       0.0091870936        -95.9871916      0.00412924273        -97.3336485      0.00228034774          -97.98105
                     0.0191023816         85.0207102        0.019342888         85.5537328      0.00452783164         83.4128552      0.00242336894          82.448613
                     0.0091870936        -95.9871916        0.998517633         -3.4423012      0.00642396375        -96.9125265      0.00413054642        -97.3381675
                      0.019342888         85.5537328       0.0184670491         84.7359564       0.0112602589         84.7897623      0.00452769439         83.4075631
                    0.00412924273        -97.3336485      0.00642396375        -96.9125265         0.99851883        -3.44217458      0.00919059606        -95.9828556
                    0.00452783164         83.4128552       0.0112602589         84.7897623       0.0184520808         84.7386967        0.019348414         85.5549587
                    0.00228034774          -97.98105      0.00413054642        -97.3381675      0.00919059606        -95.9828556        0.998602392        -3.43647417
                    0.00242336894          82.448613      0.00452769439         83.4075631        0.019348414         85.5549587       0.0191599818         85.0510937

         400000000       0.025395778           83.92632        0.025735805         84.2384694      0.00601835372          81.390875      0.00322130277         80.0710528
                      0.998052843        -4.57041827       0.0122364817        -97.9126265      0.00549086772        -99.5932198      0.00303190127        -100.497537
                      0.025735805         84.2384694        0.024543809         83.5744401       0.0149677854         83.3116703       0.0060180956         81.3841561
                     0.0122364817        -97.9126265         0.99792436         -4.5770361      0.00854035003        -98.9323507      0.00549253122        -99.5988056
                    0.00601835372          81.390875       0.0149677854         83.3116703       0.0245243008          83.577222       0.0257431526         84.2387377
                    0.00549086772        -99.5932198      0.00854035003        -98.9323507        0.997926113        -4.57689162       0.0122410679        -97.9122813
                    0.00322130277         80.0710528       0.0060180956         81.3841561       0.0257431526         84.2387377       0.0254749708         83.9572054
                    0.00303190127        -100.497537      0.00549253122        -99.5988056       0.0122410679        -97.9122813        0.998063983         -4.5698131
                      0.998052843        -4.57041827       0.0122364817        -97.9126265      0.00549086772        -99.5932198      0.00303190127        -100.497537
                      0.025395778           83.92632        0.025735805         84.2384694      0.00601835372          81.390875      0.00322130277         80.0710528
                     0.0122364817        -97.9126265         0.99792436         -4.5770361      0.00854035003        -98.9323507      0.00549253122        -99.5988056
                      0.025735805         84.2384694        0.024543809         83.5744401       0.0149677854         83.3116703       0.0060180956         81.3841561
                    0.00549086772        -99.5932198      0.00854035003        -98.9323507        0.997926113        -4.57689162       0.0122410679        -97.9122813
                    0.00601835372          81.390875       0.0149677854         83.3116703       0.0245243008          83.577222       0.0257431526         84.2387377
                    0.00303190127        -100.497537      0.00549253122        -99.5988056       0.0122410679        -97.9122813        0.998063983         -4.5698131
                    0.00322130277         80.0710528       0.0060180956         81.3841561       0.0257431526         84.2387377       0.0254749708         83.9572054

         500000000      0.0316672196         82.7598284       0.0320972721         82.9107108      0.00749724074          79.355935      0.00401224684         77.6799657
                      0.997424485        -5.70095601       0.0152723386        -99.8520707        0.006843344        -101.867892      0.00377768212        -103.025975
                     0.0320972721         82.9107108       0.0305954097         82.3390683       0.0186512371         81.8163535      0.00749684602         79.3480076
                     0.0152723386        -99.8520707         0.99722985        -5.70867231       0.0106437372        -100.978422      0.00684534973        -101.874381
                    0.00749724074          79.355935       0.0186512371         81.8163535       0.0305715333         82.3417711       0.0321064335          82.910403
                      0.006843344        -101.867892       0.0106437372        -100.978422        0.997232147        -5.70851643       0.0152780793        -99.8538401
                    0.00401224684         77.6799657      0.00749684602         79.3480076       0.0321064335          82.910403       0.0317685921         82.7909018
                    0.00377768212        -103.025975      0.00684534973        -101.874381       0.0152780793        -99.8538401         0.99743756        -5.70035015
                      0.997424485        -5.70095601       0.0152723386        -99.8520707        0.006843344        -101.867892      0.00377768212        -103.025975
                     0.0316672196         82.7598284       0.0320972721         82.9107108      0.00749724074          79.355935      0.00401224684         77.6799657
                     0.0152723386        -99.8520707         0.99722985        -5.70867231       0.0106437372        -100.978422      0.00684534973        -101.874381
                     0.0320972721         82.9107108       0.0305954097         82.3390683       0.0186512371         81.8163535      0.00749684602         79.3480076
                      0.006843344        -101.867892       0.0106437372        -100.978422        0.997232147        -5.70851643       0.0152780793        -99.8538401
                    0.00749724074          79.355935       0.0186512371         81.8163535       0.0305715333         82.3417711       0.0321064335          82.910403
                    0.00377768212        -103.025975      0.00684534973        -101.874381       0.0152780793        -99.8538401         0.99743756        -5.70035015
                    0.00401224684         77.6799657      0.00749684602         79.3480076       0.0321064335          82.910403       0.0317685921         82.7909018

         600000000      0.0379103653         81.5554521       0.0384209877         81.5812035      0.00896183992         77.3171734      0.00479443803         75.2852341
                      0.996710452        -6.82856323       0.0182910553        -101.794724      0.00818461318         -104.14614      0.00451626997        -105.556591
                     0.0384209877         81.5812035       0.0366152159         81.0651399       0.0223062374         80.3163488      0.00896129221         77.3081044
                     0.0182910553        -101.794724         0.99643653        -6.83706957       0.0127313212        -103.035422      0.00818694372        -104.153469
                    0.00896183992         77.3171734       0.0223062374         80.3163488       0.0365870822         81.0676386       0.0384319643         81.5804647
                    0.00818461318         -104.14614       0.0127313212        -103.035422        0.996439347        -6.83690694       0.0182980019        -101.797954
                    0.00479443803         75.2852341      0.00896129221         77.3081044       0.0384319643         81.5804647       0.0380342355         81.5865221
                    0.00451626997        -105.556591      0.00818694372        -104.153469       0.0182980019        -101.797954        0.996725021        -6.82798156
                      0.996710452        -6.82856323       0.0182910553        -101.794724      0.00818461318         -104.14614      0.00451626997        -105.556591
                     0.0379103653         81.5554521       0.0384209877         81.5812035      0.00896183992         77.3171734      0.00479443803         75.2852341
                     0.0182910553        -101.794724         0.99643653        -6.83706957       0.0127313212        -103.035422      0.00818694372        -104.153469
                     0.0384209877         81.5812035       0.0366152159         81.0651399       0.0223062374         80.3163488      0.00896129221         77.3081044
                    0.00818461318         -104.14614       0.0127313212        -103.035422        0.996439347        -6.83690694       0.0182980019        -101.797954
                    0.00896183992         77.3171734       0.0223062374         80.3163488       0.0365870822         81.0676386       0.0384319643         81.5804647
                    0.00451626997        -105.556591      0.00818694372        -104.153469       0.0182980019        -101.797954        0.996725021        -6.82798156
                    0.00479443803         75.2852341      0.00896129221         77.3081044       0.0384319643         81.5804647       0.0380342355         81.5865221

         700000000      0.0441196828         80.3297206       0.0447022517         80.2539917       0.0104096415         75.2798328      0.00556631914         72.8926422
                      0.995913602        -7.95326717       0.0212895336         -103.73639      0.00951285305        -106.422391       0.0052463848        -108.083766
                     0.0447022517         80.2539917       0.0425971805         79.7695772       0.0259289486         78.8170569       0.0104089253         75.2696562
                     0.0212895336         -103.73639        0.995547722         -7.9622095       0.0148004743        -105.095769      0.00951549187        -106.430522
                     0.0104096415         75.2798328       0.0259289486         78.8170569       0.0425648546         79.7717918       0.0447150338         80.2528721
                    0.00951285305        -106.422391       0.0148004743        -105.095769        0.995551029        -7.96204316       0.0212977088        -103.740856
                    0.00556631914         72.8926422       0.0104089253         75.2696562       0.0447150338         80.2528721       0.0442662183         80.3607428
                     0.0052463848        -108.083766      0.00951549187        -106.430522       0.0212977088        -103.740856         0.99592922        -7.95272746
                      0.995913602        -7.95326717       0.0212895336         -103.73639      0.00951285305        -106.422391       0.0052463848        -108.083766
                     0.0441196828         80.3297206       0.0447022517         80.2539917       0.0104096415         75.2798328      0.00556631914         72.8926422
                     0.0212895336         -103.73639        0.995547722         -7.9622095       0.0148004743        -105.095769      0.00951549187        -106.430522
                     0.0447022517         80.2539917       0.0425971805         79.7695772       0.0259289486         78.8170569       0.0104089253         75.2696562
                    0.00951285305        -106.422391       0.0148004743        -105.095769        0.995551029        -7.96204316       0.0212977088        -103.740856
                     0.0104096415         75.2798328       0.0259289486         78.8170569       0.0425648546         79.7717918       0.0447150338         80.2528721
                     0.0052463848        -108.083766      0.00951549187        -106.430522       0.0212977088        -103.740856         0.99592922        -7.95272746
