! Created Sat Jun  6 10:41:03 2020
# hz S ma R 50
! 8 Port Network Data from SP1.SP block
! freq  magS11  angS11  magS12  angS12  magS13  angS13  magS14  angS14  
!       magS15  angS15  magS16  angS16  magS17  angS17  magS18  angS18  
!       magS21  angS21  magS22  angS22  magS23  angS23  magS24  angS24  
!       magS25  angS25  magS26  angS26  magS27  angS27  magS28  angS28  
!       magS31  angS31  magS32  angS32  magS33  angS33  magS34  angS34  
!       magS35  angS35  magS36  angS36  magS37  angS37  magS38  angS38  
!       magS41  angS41  magS42  angS42  magS43  angS43  magS44  angS44  
!       magS45  angS45  magS46  angS46  magS47  angS47  magS48  angS48  
!       magS51  angS51  magS52  angS52  magS53  angS53  magS54  angS54  
!       magS55  angS55  magS56  angS56  magS57  angS57  magS58  angS58  
!       magS61  angS61  magS62  angS62  magS63  angS63  magS64  angS64  
!       magS65  angS65  magS66  angS66  magS67  angS67  magS68  angS68  
!       magS71  angS71  magS72  angS72  magS73  angS73  magS74  angS74  
!       magS75  angS75  magS76  angS76  magS77  angS77  magS78  angS78  
!       magS81  angS81  magS82  angS82  magS83  angS83  magS84  angS84  
!       magS85  angS85  magS86  angS86  magS87  angS87  magS88  angS88  
!     
         100000000     0.00645618148         89.1173938      0.00651457929         88.5449541      0.00161897572         87.8995558     0.000917962993         87.5895431
                      0.999896696        -1.13876845      0.00320353414        -91.8161631      0.00147617037         -92.328999     0.000859041349        -92.5514109
                    0.00651457929         88.5449541      0.00621141223          89.056981      0.00383629636         88.3689344      0.00161897572         87.8995558
                    0.00320353414        -91.8161631        0.999888822        -1.14007448       0.0022472572        -92.0323566      0.00147617037         -92.328999
                    0.00161897572         87.8995558      0.00383629636         88.3689344      0.00621141223          89.056981      0.00651457929         88.5449541
                    0.00147617037         -92.328999       0.0022472572        -92.0323566        0.999888822        -1.14007448      0.00320353414        -91.8161631
                   0.000917962993         87.5895431      0.00161897572         87.8995558      0.00651457929         88.5449541      0.00645618148         89.1173938
                   0.000859041349        -92.5514109      0.00147617037         -92.328999      0.00320353414        -91.8161631        0.999896696        -1.13876845
                      0.999896696        -1.13876845      0.00320353414        -91.8161631      0.00147617037         -92.328999     0.000859041349        -92.5514109
                    0.00645618148         89.1173938      0.00651457929         88.5449541      0.00161897572         87.8995558     0.000917962993         87.5895431
                    0.00320353414        -91.8161631        0.999888822        -1.14007448       0.0022472572        -92.0323566      0.00147617037         -92.328999
                    0.00651457929         88.5449541      0.00621141223          89.056981      0.00383629636         88.3689344      0.00161897572         87.8995558
                    0.00147617037         -92.328999       0.0022472572        -92.0323566        0.999888822        -1.14007448      0.00320353414        -91.8161631
                    0.00161897572         87.8995558      0.00383629636         88.3689344      0.00621141223          89.056981      0.00651457929         88.5449541
                   0.000859041349        -92.5514109      0.00147617037         -92.328999      0.00320353414        -91.8161631        0.999896696        -1.13876845
                   0.000917962993         87.5895431      0.00161897572         87.8995558      0.00651457929         88.5449541      0.00645618148         89.1173938

         200000000      0.0129516439         87.7681967       0.0130138517         87.1752473      0.00323487083         85.8024122      0.00183399326         85.1818256
                      0.999692272        -2.27458511      0.00641159982        -93.8024994      0.00294998361        -94.6594012      0.00171640646        -95.1033875
                     0.0130138517         87.1752473       0.0124615356         87.6264523      0.00766355648         86.8005317      0.00323487083         85.8024122
                    0.00641159982        -93.8024994         0.99966152        -2.27711595      0.00449472273        -94.1682799      0.00294998361        -94.6594012
                    0.00323487083         85.8024122      0.00766355648         86.8005317       0.0124615356         87.6264523       0.0130138517         87.1752473
                    0.00294998361        -94.6594012      0.00449472273        -94.1682799         0.99966152        -2.27711595      0.00641159982        -93.8024994
                    0.00183399326         85.1818256      0.00323487083         85.8024122       0.0130138517         87.1752473       0.0129516439         87.7681967
                    0.00171640646        -95.1033875      0.00294998361        -94.6594012      0.00641159982        -93.8024994        0.999692272        -2.27458511
                      0.999692272        -2.27458511      0.00641159982        -93.8024994      0.00294998361        -94.6594012      0.00171640646        -95.1033875
                     0.0129516439         87.7681967       0.0130138517         87.1752473      0.00323487083         85.8024122      0.00183399326         85.1818256
                    0.00641159982        -93.8024994         0.99966152        -2.27711595      0.00449472273        -94.1682799      0.00294998361        -94.6594012
                     0.0130138517         87.1752473       0.0124615356         87.6264523      0.00766355648         86.8005317      0.00323487083         85.8024122
                    0.00294998361        -94.6594012      0.00449472273        -94.1682799         0.99966152        -2.27711595      0.00641159982        -93.8024994
                    0.00323487083         85.8024122      0.00766355648         86.8005317       0.0124615356         87.6264523       0.0130138517         87.1752473
                    0.00171640646        -95.1033875      0.00294998361        -94.6594012      0.00641159982        -93.8024994        0.999692272        -2.27458511
                    0.00183399326         85.1818256      0.00323487083         85.8024122       0.0130138517         87.1752473       0.0129516439         87.7681967

         300000000      0.0194509956         86.4224719       0.0194963489         85.8070858      0.00484468534         83.7073448      0.00274613354         82.7764435
                      0.999387014        -3.40880016       0.0096151368        -95.7869691      0.00441902707        -96.9875454      0.00257046068        -97.6530051
                     0.0194963489         85.8070858       0.0187140544         86.1999951       0.0114786782         85.2341877      0.00484468534         83.7073448
                     0.0096151368        -95.7869691        0.999318551        -3.41242299      0.00673679269         -96.301956      0.00441902707        -96.9875454
                    0.00484468534         83.7073448       0.0114786782         85.2341877       0.0187140544         86.1999951       0.0194963489         85.8070858
                    0.00441902707        -96.9875454      0.00673679269         -96.301956        0.999318551        -3.41242299       0.0096151368        -95.7869691
                    0.00274613354         82.7764435      0.00484468534         83.7073448       0.0194963489         85.8070858       0.0194509956         86.4224719
                    0.00257046068        -97.6530051      0.00441902707        -96.9875454       0.0096151368        -95.7869691        0.999387014        -3.40880016
                      0.999387014        -3.40880016       0.0096151368        -95.7869691      0.00441902707        -96.9875454      0.00257046068        -97.6530051
                     0.0194509956         86.4224719       0.0194963489         85.8070858      0.00484468534         83.7073448      0.00274613354         82.7764435
                     0.0096151368        -95.7869691        0.999318551        -3.41242299      0.00673679269         -96.301956      0.00441902707        -96.9875454
                     0.0194963489         85.8070858       0.0187140544         86.1999951       0.0114786782         85.2341877      0.00484468534         83.7073448
                    0.00441902707        -96.9875454      0.00673679269         -96.301956        0.999318551        -3.41242299       0.0096151368        -95.7869691
                    0.00484468534         83.7073448       0.0114786782         85.2341877       0.0187140544         86.1999951       0.0194963489         85.8070858
                    0.00257046068        -97.6530051      0.00441902707        -96.9875454       0.0096151368        -95.7869691        0.999387014        -3.40880016
                    0.00274613354         82.7764435      0.00484468534         83.7073448       0.0194963489         85.8070858       0.0194509956         86.4224719

         400000000      0.0259417695         85.0798889       0.0259565414         84.4410494      0.00644542818         81.6154897      0.00365245984         80.3745329
                       0.99898175        -4.54145637         0.01280925        -97.7688892      0.00588093973         -99.312372      0.00341957721        -100.199003
                     0.0259565414         84.4410494       0.0249557332         84.7772941       0.0152768516         83.6708274      0.00644542818         81.6154897
                       0.01280925        -97.7688892        0.998861008        -4.54597957      0.00896966947        -98.4324021      0.00588093973         -99.312372
                    0.00644542818         81.6154897       0.0152768516         83.6708274       0.0249557332         84.7772941       0.0259565414         84.4410494
                    0.00588093973         -99.312372      0.00896966947        -98.4324021        0.998861008        -4.54597957         0.01280925        -97.7688892
                    0.00365245984         80.3745329      0.00644542818         81.6154897       0.0259565414         84.4410494       0.0259417695         85.0798889
                    0.00341957721        -100.199003      0.00588093973         -99.312372         0.01280925        -97.7688892         0.99898175        -4.54145637
                       0.99898175        -4.54145637         0.01280925        -97.7688892      0.00588093973         -99.312372      0.00341957721        -100.199003
                     0.0259417695         85.0798889       0.0259565414         84.4410494      0.00644542818         81.6154897      0.00365245984         80.3745329
                       0.01280925        -97.7688892        0.998861008        -4.54597957      0.00896966947        -98.4324021      0.00588093973         -99.312372
                     0.0259565414         84.4410494       0.0249557332         84.7772941       0.0152768516         83.6708274      0.00644542818         81.6154897
                    0.00588093973         -99.312372      0.00896966947        -98.4324021        0.998861008        -4.54597957         0.01280925        -97.7688892
                    0.00644542818         81.6154897       0.0152768516         83.6708274       0.0249557332         84.7772941       0.0259565414         84.4410494
                    0.00341957721        -100.199003      0.00588093973         -99.312372         0.01280925        -97.7688892         0.99898175        -4.54145637
                    0.00365245984         80.3745329      0.00644542818         81.6154897       0.0259565414         84.4410494       0.0259417695         85.0798889

         500000000      0.0324148301         83.7406686       0.0323884174         83.0777597      0.00803415701         79.5279527      0.00455108406         77.9772295
                       0.99847775        -5.67241579       0.0159896879        -99.7475226      0.00733340488        -101.632815      0.00426215643        -102.740146
                     0.0323884174         83.0777597       0.0311767084         83.3586557         0.01905311         82.1113934      0.00803415701         79.5279527
                     0.0159896879        -99.7475226         0.99829052        -5.67758924       0.0111898633        -100.558615      0.00733340488        -101.632815
                    0.00803415701         79.5279527         0.01905311         82.1113934       0.0311767084         83.3586557       0.0323884174         83.0777597
                    0.00733340488        -101.632815       0.0111898633        -100.558615         0.99829052        -5.67758924       0.0159896879        -99.7475226
                    0.00455108406         77.9772295      0.00803415701         79.5279527       0.0323884174         83.0777597       0.0324148301         83.7406686
                    0.00426215643        -102.740146      0.00733340488        -101.632815       0.0159896879        -99.7475226         0.99847775        -5.67241579
                       0.99847775        -5.67241579       0.0159896879        -99.7475226      0.00733340488        -101.632815      0.00426215643        -102.740146
                     0.0324148301         83.7406686       0.0323884174         83.0777597      0.00803415701         79.5279527      0.00455108406         77.9772295
                     0.0159896879        -99.7475226         0.99829052        -5.67758924       0.0111898633        -100.558615      0.00733340488        -101.632815
                     0.0323884174         83.0777597       0.0311767084         83.3586557         0.01905311         82.1113934      0.00803415701         79.5279527
                    0.00733340488        -101.632815       0.0111898633        -100.558615         0.99829052        -5.67758924       0.0159896879        -99.7475226
                    0.00803415701         79.5279527         0.01905311         82.1113934       0.0311767084         83.3586557       0.0323884174         83.0777597
                    0.00426215643        -102.740146      0.00733340488        -101.632815       0.0159896879        -99.7475226         0.99847775        -5.67241579
                    0.00455108406         77.9772295      0.00803415701         79.5279527       0.0323884174         83.0777597       0.0324148301         83.7406686

         600000000      0.0388623693         82.4051931       0.0387858841         81.7178428       0.0096079976         77.4458154      0.00544016434          75.585656
                      0.997876689        -6.80147828       0.0191524944        -101.722127      0.00877416135        -103.947818      0.00509663623        -105.275225
                     0.0387858841         81.7178428       0.0373684775         81.9445685       0.0228025179         80.5568211       0.0096079976         77.4458154
                     0.0191524944        -101.722127        0.997609211        -6.80699495       0.0133940535        -102.679597      0.00877416135        -103.947818
                     0.0096079976         77.4458154       0.0228025179         80.5568211       0.0373684775         81.9445685       0.0387858841         81.7178428
                    0.00877416135        -103.947818       0.0133940535        -102.679597        0.997609211        -6.80699495       0.0191524944        -101.722127
                    0.00544016434          75.585656       0.0096079976         77.4458154       0.0387858841         81.7178428       0.0388623693         82.4051931
                    0.00509663623        -105.275225      0.00877416135        -103.947818       0.0191524944        -101.722127        0.997876689        -6.80147828
                      0.997876689        -6.80147828       0.0191524944        -101.722127      0.00877416135        -103.947818      0.00509663623        -105.275225
                     0.0388623693         82.4051931       0.0387858841         81.7178428       0.0096079976         77.4458154      0.00544016434          75.585656
                     0.0191524944        -101.722127        0.997609211        -6.80699495       0.0133940535        -102.679597      0.00877416135        -103.947818
                     0.0387858841         81.7178428       0.0373684775         81.9445685       0.0228025179         80.5568211       0.0096079976         77.4458154
                    0.00877416135        -103.947818       0.0133940535        -102.679597        0.997609211        -6.80699495       0.0191524944        -101.722127
                     0.0096079976         77.4458154       0.0228025179         80.5568211       0.0373684775         81.9445685       0.0387858841         81.7178428
                    0.00509663623        -105.275225      0.00877416135        -103.947818       0.0191524944        -101.722127        0.997876689        -6.80147828
                    0.00544016434          75.585656       0.0096079976         77.4458154       0.0387858841         81.7178428       0.0388623693         82.4051931

         700000000      0.0452773161         81.0739058       0.0451429114         80.3619166       0.0111641606         75.3701345      0.00631791527         73.2009145
                      0.997180617        -7.92841866       0.0222939153        -103.691968       0.0102010154        -106.256344      0.00592150122         -107.80305
                     0.0451429114         80.3619166        0.043523312         80.5355897        0.026520248         79.0080286       0.0111641606         75.3701345
                     0.0222939153        -103.691968        0.996819667        -7.93391682        0.015579058        -104.794368       0.0102010154        -106.256344
                     0.0111641606         75.3701345        0.026520248         79.0080286        0.043523312         80.5355897       0.0451429114         80.3619166
                     0.0102010154        -106.256344        0.015579058        -104.794368        0.996819667        -7.93391682       0.0222939153        -103.691968
                    0.00631791527         73.2009145       0.0111641606         75.3701345       0.0451429114         80.3619166       0.0452773161         81.0739058
                    0.00592150122         -107.80305       0.0102010154        -106.256344       0.0222939153        -103.691968        0.997180617        -7.92841866
                      0.997180617        -7.92841866       0.0222939153        -103.691968       0.0102010154        -106.256344      0.00592150122         -107.80305
                     0.0452773161         81.0739058       0.0451429114         80.3619166       0.0111641606         75.3701345      0.00631791527         73.2009145
                     0.0222939153        -103.691968        0.996819667        -7.93391682        0.015579058        -104.794368       0.0102010154        -106.256344
                     0.0451429114         80.3619166        0.043523312         80.5355897        0.026520248         79.0080286       0.0111641606         75.3701345
                     0.0102010154        -106.256344        0.015579058        -104.794368        0.996819667        -7.93391682       0.0222939153        -103.691968
                     0.0111641606         75.3701345        0.026520248         79.0080286        0.043523312         80.5355897       0.0451429114         80.3619166
                    0.00592150122         -107.80305       0.0102010154        -106.256344       0.0222939153        -103.691968        0.997180617        -7.92841866
