! www.PolarInstruments.com
! File Export V10.11 [9.03]
! For hxji@mail.xidian.edu.cn;QQ=47399897
! File : D:\SJTU\Bachelor\thesis\Multi-line\transmission-line-params-extractor\data\2line\2line_Polar_500mil.s4p
! Polar  PCB Transmission Line Field Solver  v11.04.00
# MHz S DB R 50.00
!
! Line Length = 0.013m ( 0.50 inch )
!
!
!	           PORT NUMBERING (Classic style)
!	    PORT#                               PORT#
!	    Z1 = Z2 = 50.00                     Z3 = Z4 = 50.00
!	           --------------------------
!	          |                          |
!	      1 --|                          |-- 3
!	          |                          |
!	      2 --|                          |-- 4
!	          |                          |
!	           --------------------------
!
!
!
! FREQ MHz                S11                       S12                       S13                       S14
!                         S21                       S22                       S23                       S24
!                         S31                       S32                       S33                       S34
!                         S41                       S42                       S43                       S44
!                  DB           ANG          DB           ANG          DB           ANG          DB           ANG
100.000000      -34.875915      84.022   -35.710184      85.949    -0.016854      -2.865   -41.579006     -94.685
                -35.710184      85.949   -34.875915      84.022   -41.579006     -94.685    -0.016854      -2.865
                 -0.016854      -2.865   -41.579006     -94.685   -34.875915      84.022   -35.710184      85.949
                -41.579006     -94.685    -0.016854      -2.865   -35.710184      85.949   -34.875915      84.022

200.000000      -29.036824      81.663   -29.733964      82.673    -0.034307      -5.691   -35.624074     -99.311
                -29.733964      82.673   -29.036824      81.663   -35.624074     -99.311    -0.034307      -5.691
                 -0.034307      -5.691   -35.624074     -99.311   -29.036824      81.663   -29.733964      82.673
                -35.624074     -99.311    -0.034307      -5.691   -29.733964      82.673   -29.036824      81.663

300.000000      -25.627380      78.849   -26.264908      79.417    -0.055522      -8.503   -32.170253    -104.017
                -26.264908      79.417   -25.627380      78.849   -32.170253    -104.017    -0.055522      -8.503
                 -0.055522      -8.503   -32.170253    -104.017   -25.627380      78.849   -26.264908      79.417
                -32.170253    -104.017    -0.055522      -8.503   -26.264908      79.417   -25.627380      78.849

400.000000      -23.228805      75.898   -23.831537      76.181    -0.080844     -11.298   -29.750513    -108.718
                -23.831537      76.181   -23.228805      75.898   -29.750513    -108.718    -0.080844     -11.298
                 -0.080844     -11.298   -29.750513    -108.718   -23.228805      75.898   -23.831537      76.181
                -29.750513    -108.718    -0.080844     -11.298   -23.831537      76.181   -23.228805      75.898

500.000000      -21.392573      72.896   -21.972241      72.970    -0.110246     -14.074   -27.904595    -113.389
                -21.972241      72.970   -21.392573      72.896   -27.904595    -113.389    -0.110246     -14.074
                 -0.110246     -14.074   -27.904595    -113.389   -21.392573      72.896   -21.972241      72.970
                -27.904595    -113.389    -0.110246     -14.074   -21.972241      72.970   -21.392573      72.896

600.000000      -19.917688      69.882   -20.481009      69.790    -0.143492     -16.829   -26.427086    -118.021
                -20.481009      69.790   -19.917688      69.882   -26.427086    -118.021    -0.143492     -16.829
                 -0.143492     -16.829   -26.427086    -118.021   -19.917688      69.882   -20.481009      69.790
                -26.427086    -118.021    -0.143492     -16.829   -20.481009      69.790   -19.917688      69.882

700.000000      -18.696275      66.879   -19.247578      66.649    -0.180223     -19.561   -25.208050    -122.605
                -19.247578      66.649   -18.696275      66.879   -25.208050    -122.605    -0.180223     -19.561
                 -0.180223     -19.561   -25.208050    -122.605   -18.696275      66.879   -19.247578      66.649
                -25.208050    -122.605    -0.180223     -19.561   -19.247578      66.649   -18.696275      66.879

800.000000      -17.663477      63.898   -18.205784      63.550    -0.220004     -22.266   -24.181527    -127.137
                -18.205784      63.550   -17.663477      63.898   -24.181527    -127.137    -0.220004     -22.266
                 -0.220004     -22.266   -24.181527    -127.137   -17.663477      63.898   -18.205784      63.550
                -24.181527    -127.137    -0.220004     -22.266   -18.205784      63.550   -17.663477      63.898

900.000000      -16.777090      60.950   -17.312639      60.497    -0.262356     -24.944   -23.304667    -131.612
                -17.312639      60.497   -16.777090      60.950   -23.304667    -131.612    -0.262356     -24.944
                 -0.262356     -24.944   -23.304667    -131.612   -16.777090      60.950   -17.312639      60.497
                -23.304667    -131.612    -0.262356     -24.944   -17.312639      60.497   -16.777090      60.950

1000.000000      -16.007743      58.037   -16.538404      57.491    -0.306914     -27.594   -22.547387    -136.032
                -16.538404      57.491   -16.007743      58.037   -22.547387    -136.032    -0.306914     -27.594
                 -0.306914     -27.594   -22.547387    -136.032   -16.007743      58.037   -16.538404      57.491
                -22.547387    -136.032    -0.306914     -27.594   -16.538404      57.491   -16.007743      58.037

1100.000000      -15.334915      55.171   -15.861937      54.542    -0.352903     -30.214   -21.889510    -140.382
                -15.861937      54.542   -15.334915      55.171   -21.889510    -140.382    -0.352903     -30.214
                 -0.352903     -30.214   -21.889510    -140.382   -15.334915      55.171   -15.861937      54.542
                -21.889510    -140.382    -0.352903     -30.214   -15.861937      54.542   -15.334915      55.171

1200.000000      -14.742588      52.352   -15.267108      51.646    -0.399947     -32.805   -21.314541    -144.664
                -15.267108      51.646   -14.742588      52.352   -21.314541    -144.664    -0.399947     -32.805
                 -0.399947     -32.805   -21.314541    -144.664   -14.742588      52.352   -15.267108      51.646
                -21.314541    -144.664    -0.399947     -32.805   -15.267108      51.646   -14.742588      52.352

1300.000000      -14.218621      49.581   -14.741591      48.804    -0.447561     -35.366   -20.810212    -148.878
                -14.741591      48.804   -14.218621      49.581   -20.810212    -148.878    -0.447561     -35.366
                 -0.447561     -35.366   -20.810212    -148.878   -14.218621      49.581   -14.741591      48.804
                -20.810212    -148.878    -0.447561     -35.366   -14.741591      48.804   -14.218621      49.581

1400.000000      -13.753431      46.859   -14.275657      46.018    -0.495289     -37.899   -20.366853    -153.023
                -14.275657      46.018   -13.753431      46.859   -20.366853    -153.023    -0.495289     -37.899
                 -0.495289     -37.899   -20.366853    -153.023   -13.753431      46.859   -14.275657      46.018
                -20.366853    -153.023    -0.495289     -37.899   -14.275657      46.018   -13.753431      46.859

1500.000000      -13.339303      44.187   -13.861479      43.286    -0.542705     -40.405   -19.976685    -157.097
                -13.861479      43.286   -13.339303      44.187   -19.976685    -157.097    -0.542705     -40.405
                 -0.542705     -40.405   -19.976685    -157.097   -13.339303      44.187   -13.861479      43.286
                -19.976685    -157.097    -0.542705     -40.405   -13.861479      43.286   -13.339303      44.187

1600.000000      -12.969930      41.564   -13.492655      40.608    -0.589418     -42.883   -19.633354    -161.100
                -13.492655      40.608   -12.969930      41.564   -19.633354    -161.100    -0.589418     -42.883
                 -0.589418     -42.883   -19.633354    -161.100   -12.969930      41.564   -13.492655      40.608
                -19.633354    -161.100    -0.589418     -42.883   -13.492655      40.608   -12.969930      41.564

1700.000000      -12.640087      38.989   -13.163878      37.982    -0.635077     -45.336   -19.331600    -165.032
                -13.163878      37.982   -12.640087      38.989   -19.331600    -165.032    -0.635077     -45.336
                 -0.635077     -45.336   -19.331600    -165.032   -12.640087      38.989   -13.163878      37.982
                -19.331600    -165.032    -0.635077     -45.336   -13.163878      37.982   -12.640087      38.989

1800.000000      -12.345399      36.460   -12.870706      35.406    -0.679369     -47.766   -19.067023    -168.893
                -12.870706      35.406   -12.345399      36.460   -19.067023    -168.893    -0.679369     -47.766
                 -0.679369     -47.766   -19.067023    -168.893   -12.345399      36.460   -12.870706      35.406
                -19.067023    -168.893    -0.679369     -47.766   -12.870706      35.406   -12.345399      36.460

1900.000000      -12.082174      33.976   -12.609387      32.879    -0.722018     -50.173   -18.835910    -172.683
                -12.609387      32.879   -12.082174      33.976   -18.835910    -172.683    -0.722018     -50.173
                 -0.722018     -50.173   -18.835910    -172.683   -12.082174      33.976   -12.609387      32.879
                -18.835910    -172.683    -0.722018     -50.173   -12.609387      32.879   -12.082174      33.976

2000.000000      -11.847277      31.535   -12.376731      30.398    -0.762784     -52.560   -18.635105    -176.402
                -12.376731      30.398   -11.847277      31.535   -18.635105    -176.402    -0.762784     -52.560
                 -0.762784     -52.560   -18.635105    -176.402   -11.847277      31.535   -12.376731      30.398
                -18.635105    -176.402    -0.762784     -52.560   -12.376731      30.398   -11.847277      31.535

2100.000000      -11.638030      29.135   -12.170013      27.961    -0.801463     -54.928   -18.461915     179.949
                -12.170013      27.961   -11.638030      29.135   -18.461915     179.949    -0.801463     -54.928
                 -0.801463     -54.928   -18.461915     179.949   -11.638030      29.135   -12.170013      27.961
                -18.461915     179.949    -0.801463     -54.928   -12.170013      27.961   -11.638030      29.135

2200.000000      -11.452144      26.772   -11.986897      25.565    -0.837880     -57.279   -18.314030     176.370
                -11.986897      25.565   -11.452144      26.772   -18.314030     176.370    -0.837880     -57.279
                 -0.837880     -57.279   -18.314030     176.370   -11.452144      26.772   -11.986897      25.565
                -18.314030     176.370    -0.837880     -57.279   -11.986897      25.565   -11.452144      26.772

2300.000000      -11.287652      24.445   -11.825378      23.207    -0.871892     -59.614   -18.189460     172.861
                -11.825378      23.207   -11.287652      24.445   -18.189460     172.861    -0.871892     -59.614
                 -0.871892     -59.614   -18.189460     172.861   -11.287652      24.445   -11.825378      23.207
                -18.189460     172.861    -0.871892     -59.614   -11.825378      23.207   -11.287652      24.445

2400.000000      -11.142871      22.150   -11.683733      20.885    -0.903378     -61.936   -18.086489     169.422
                -11.683733      20.885   -11.142871      22.150   -18.086489     169.422    -0.903378     -61.936
                 -0.903378     -61.936   -18.086489     169.422   -11.142871      22.150   -11.683733      20.885
                -18.086489     169.422    -0.903378     -61.936   -11.683733      20.885   -11.142871      22.150

2500.000000      -11.016357      19.885   -11.560487      18.595    -0.932244     -64.245   -18.003637     166.054
                -11.560487      18.595   -11.016357      19.885   -18.003637     166.054    -0.932244     -64.245
                 -0.932244     -64.245   -18.003637     166.054   -11.016357      19.885   -11.560487      18.595
                -18.003637     166.054    -0.932244     -64.245   -11.560487      18.595   -11.016357      19.885

2600.000000      -10.906881      17.647   -11.454378      16.334    -0.958413     -66.545   -17.939617     162.756
                -11.454378      16.334   -10.906881      17.647   -17.939617     162.756    -0.958413     -66.545
                 -0.958413     -66.545   -17.939617     162.756   -10.906881      17.647   -11.454378      16.334
                -17.939617     162.756    -0.958413     -66.545   -11.454378      16.334   -10.906881      17.647

2700.000000      -10.813401      15.432   -11.364336      14.099    -0.981829     -68.835   -17.893317     159.529
                -11.364336      14.099   -10.813401      15.432   -17.893317     159.529    -0.981829     -68.835
                 -0.981829     -68.835   -17.893317     159.529   -10.813401      15.432   -11.364336      14.099
                -17.893317     159.529    -0.981829     -68.835   -11.364336      14.099   -10.813401      15.432

2800.000000      -10.735042      13.239   -11.289461      11.887    -1.002450     -71.119   -17.863766     156.376
                -11.289461      11.887   -10.735042      13.239   -17.863766     156.376    -1.002450     -71.119
                 -1.002450     -71.119   -17.863766     156.376   -10.735042      13.239   -11.289461      11.887
                -17.863766     156.376    -1.002450     -71.119   -11.289461      11.887   -10.735042      13.239

2900.000000      -10.671082      11.064   -11.229007       9.696    -1.020247     -73.396   -17.850113     153.297
                -11.229007       9.696   -10.671082      11.064   -17.850113     153.297    -1.020247     -73.396
                 -1.020247     -73.396   -17.850113     153.297   -10.671082      11.064   -11.229007       9.696
                -17.850113     153.297    -1.020247     -73.396   -11.229007       9.696   -10.671082      11.064

3000.000000      -10.620937       8.904   -11.182370       7.521    -1.035205     -75.670   -17.851610     150.295
                -11.182370       7.521   -10.620937       8.904   -17.851610     150.295    -1.035205     -75.670
                 -1.035205     -75.670   -17.851610     150.295   -10.620937       8.904   -11.182370       7.521
                -17.851610     150.295    -1.035205     -75.670   -11.182370       7.521   -10.620937       8.904

3100.000000      -10.584151       6.756   -11.149078       5.360    -1.047317     -77.940   -17.867584     147.372
                -11.149078       5.360   -10.584151       6.756   -17.867584     147.372    -1.047317     -77.940
                 -1.047317     -77.940   -17.867584     147.372   -10.584151       6.756   -11.149078       5.360
                -17.867584     147.372    -1.047317     -77.940   -11.149078       5.360   -10.584151       6.756

3200.000000      -10.560387       4.618   -11.128782       3.210    -1.056587     -80.209   -17.897419     144.532
                -11.128782       3.210   -10.560387       4.618   -17.897419     144.532    -1.056587     -80.209
                 -1.056587     -80.209   -17.897419     144.532   -10.560387       4.618   -11.128782       3.210
                -17.897419     144.532    -1.056587     -80.209   -11.128782       3.210   -10.560387       4.618

3300.000000      -10.549425       2.486   -11.121248       1.068    -1.063027     -82.478   -17.940534     141.780
                -11.121248       1.068   -10.549425       2.486   -17.940534     141.780    -1.063027     -82.478
                 -1.063027     -82.478   -17.940534     141.780   -10.549425       2.486   -11.121248       1.068
                -17.940534     141.780    -1.063027     -82.478   -11.121248       1.068   -10.549425       2.486

3400.000000      -10.551151       0.358   -11.126360      -1.070    -1.066658     -84.748   -17.996357     139.120
                -11.126360      -1.070   -10.551151       0.358   -17.996357     139.120    -1.066658     -84.748
                 -1.066658     -84.748   -17.996357     139.120   -10.551151       0.358   -11.126360      -1.070
                -17.996357     139.120    -1.066658     -84.748   -11.126360      -1.070   -10.551151       0.358

3500.000000      -10.565563      -1.768   -11.144110      -3.206    -1.067506     -87.021   -18.064298     136.558
                -11.144110      -3.206   -10.565563      -1.768   -18.064298     136.558    -1.067506     -87.021
                 -1.067506     -87.021   -18.064298     136.558   -10.565563      -1.768   -11.144110      -3.206
                -18.064298     136.558    -1.067506     -87.021   -11.144110      -3.206   -10.565563      -1.768

3600.000000      -10.592765      -3.897   -11.174606      -5.344    -1.065608     -89.298   -18.143715     134.101
                -11.174606      -5.344   -10.592765      -3.897   -18.143715     134.101    -1.065608     -89.298
                 -1.065608     -89.298   -18.143715     134.101   -10.592765      -3.897   -11.174606      -5.344
                -18.143715     134.101    -1.065608     -89.298   -11.174606      -5.344   -10.592765      -3.897

3700.000000      -10.632968      -6.030   -11.218066      -7.486    -1.061006     -91.580   -18.233877     131.756
                -11.218066      -7.486   -10.632968      -6.030   -18.233877     131.756    -1.061006     -91.580
                 -1.061006     -91.580   -18.233877     131.756   -10.632968      -6.030   -11.218066      -7.486
                -18.233877     131.756    -1.061006     -91.580   -11.218066      -7.486   -10.632968      -6.030

3800.000000      -10.686498      -8.171   -11.274826      -9.635    -1.053752     -93.868   -18.333921     129.533
                -11.274826      -9.635   -10.686498      -8.171   -18.333921     129.533    -1.053752     -93.868
                 -1.053752     -93.868   -18.333921     129.533   -10.686498      -8.171   -11.274826      -9.635
                -18.333921     129.533    -1.053752     -93.868   -11.274826      -9.635   -10.686498      -8.171

3900.000000      -10.753795     -10.321   -11.345344     -11.795    -1.043907     -96.164   -18.442793     127.441
                -11.345344     -11.795   -10.753795     -10.321   -18.442793     127.441    -1.043907     -96.164
                 -1.043907     -96.164   -18.442793     127.441   -10.753795     -10.321   -11.345344     -11.795
                -18.442793     127.441    -1.043907     -96.164   -11.345344     -11.795   -10.753795     -10.321

4000.000000      -10.835423     -12.483   -11.430208     -13.968    -1.031543     -98.470   -18.559192     125.491
                -11.430208     -13.968   -10.835423     -12.483   -18.559192     125.491    -1.031543     -98.470
                 -1.031543     -98.470   -18.559192     125.491   -10.835423     -12.483   -11.430208     -13.968
                -18.559192     125.491    -1.031543     -98.470   -11.430208     -13.968   -10.835423     -12.483

4100.000000      -10.932079     -14.660   -11.530145     -16.156    -1.016740    -100.786   -18.681493     123.694
