# GHz S RI R 50

1.000000000000000e-01  1.9291695819954829e-03  1.8812151596234245e-02  1.1760772009200464e-03  1.6264477853406133e-02  1.1751637991301358e+00 -4.6326622697545929e-02 -7.0570892791791231e-04 -7.7152657237748610e-03
                         1.2637743519376056e-03  1.6744544824643208e-02  1.7558293700509842e-03  1.7804855160700326e-02 -7.7530912407071547e-04 -8.2583912409798441e-03  9.9367129318266512e-01 -5.1827902393191592e-02
                         8.8423148431459808e-01 -5.3254494501116169e-02 -6.6624460721122799e-04 -7.8040547856085820e-03  1.7518655147812426e-03  1.7611828396773627e-02  1.1989969156353749e-03  1.6310434179152004e-02
                        -7.1036597444182998e-04 -8.3072164353266021e-03  1.0138906352915635e+00 -5.4955607694654907e-02  1.3332920575580742e-03  1.6405918974937379e-02  1.8594116408364484e-03  1.7735173868536808e-02
2.000000000000000e-01  5.0910598196769012e-03  3.7442942051473228e-02  4.2979657774884572e-03  3.1455305796107079e-02  1.0153769584038386e+00 -9.8401286140651981e-02 -2.7170128437419517e-03 -1.5834639752704448e-02
                         4.4680839655621167e-03  3.3431035659416845e-02  4.8135692829951206e-03  3.4510663659233061e-02 -2.8161965628282484e-03 -1.5965259825136746e-02  9.5213292469990740e-01 -9.6294046838609898e-02
                         1.0609767694786425e+00 -1.0726101937503192e-01 -2.7736946887532751e-03 -1.7350337272656370e-02  5.3090450010465952e-03  3.5687321591808818e-02  4.3430627685873682e-03  3.3882259969215005e-02
                        -2.8674068897365495e-03 -1.7405275770168926e-02  1.0719389130366521e+00 -9.6712487436542649e-02  4.0952591044755831e-03  3.4078776512376334e-02  4.8290446229408684e-03  3.7947116219880082e-02
3.000000000000000e-01  9.5768695883169264e-03  5.3772160834254644e-02  9.0734635701616960e-03  4.7960356014946956e-02  9.7768262619264779e-01 -1.5471732002993607e-01 -5.7079507471724435e-03 -2.4595144124490011e-02
                         8.5669216311285365e-03  4.4506125678408254e-02  9.7356864680398520e-03  4.9970426225851676e-02 -5.8939189633835914e-03 -2.4762124462575544e-02  9.8122976123137351e-01 -1.4059219970893377e-01
                         8.3803800538397133e-01 -1.4641652423710044e-01 -6.3746979894666513e-03 -2.1799871229280100e-02  1.0279069331232705e-02  5.0358342730634276e-02  8.8546893215876304e-03  4.7213505390380987e-02
                        -6.3950065785754306e-03 -2.4273688112308602e-02  8.9861043930443385e-01 -1.5578518283704576e-01  9.0679584097698076e-03  4.4645557235414503e-02  1.0435133422024033e-02  5.4535103211192822e-02
4.000000000000000e-01  1.7718949580672175e-02  7.0091210065795204e-02  1.4433112103525148e-02  6.0019924983185917e-02  9.3414876388780455e-01 -1.9898681379907499e-01 -9.8750969210139195e-03 -3.0555169698869733e-02
                         1.6218162789355197e-02  6.1441369200026914e-02  1.5865202352625431e-02  6.6213602742784219e-02 -1.0637725352641439e-02 -2.9648058320046286e-02  9.7311823646605700e-01 -1.9186621490793415e-01
                         9.2958317736415763e-01 -1.9765113851624214e-01 -1.0440218491661322e-02 -2.8839577936353784e-02  1.6611077604626229e-02  6.6852631436364968e-02  1.5790417048543740e-02  6.4898763080890987e-02
                        -1.0484191265641053e-02 -2.9801481154702058e-02  1.0459870273456895e+00 -2.1242298753150959e-01  1.6224372801065930e-02  6.5469364168477831e-02  1.7725119212850294e-02  7.1813246403049827e-02
5.000000000000000e-01  2.6988416475291051e-02  8.4955688685033462e-02  2.2099379591081079e-02  7.4485130625768489e-02  9.4853429703712333e-01 -2.4023842700496748e-01 -1.4841915608701791e-02 -3.6447311901564451e-02
                         2.3438420796383242e-02  7.6710250890050638e-02  2.7998399333438916e-02  7.8738456868898549e-02 -1.6688193919042346e-02 -3.4009036623929033e-02  9.8112708097339918e-01 -2.2905972071555661e-01
                         8.8632029020600167e-01 -2.4647709451469002e-01 -1.5486458324308788e-02 -3.5492704557202159e-02  2.4095857499287544e-02  8.0897796415495188e-02  2.3131166749876090e-02  7.6748484879977513e-02
                        -1.5385236012783753e-02 -3.6985953932123596e-02  9.9357220554276759e-01 -2.2993895693523447e-01  2.1701829149191144e-02  7.0428083721969764e-02  2.4808387464708471e-02  8.5380659816955751e-02
6.000000000000001e-01  3.7187102049312325e-02  8.6830303725765445e-02  3.1370397811928005e-02  8.7927222370624544e-02  9.5164292419527419e-01 -2.8682366986270286e-01 -2.3225294265525279e-02 -3.8379087212694014e-02
                         3.3161623562994701e-02  8.5464161075756759e-02  3.5932412333335585e-02  9.0389417379103942e-02 -2.1109133024521186e-02 -4.1069697388754732e-02  1.0632011132038637e+00 -2.8228314560927009e-01
                         9.5080221882873950e-01 -2.7410795777409031e-01 -2.3351757628753401e-02 -4.1581002501624290e-02  3.2729952501692604e-02  9.6240308756592688e-02  3.1595230912692916e-02  9.7607456048464603e-02
                        -2.4195276397083392e-02 -4.1150480937704313e-02  9.3001758609477436e-01 -2.9891543872329551e-01  3.2856492367766880e-02  9.1202263714555989e-02  3.5048203403121529e-02  9.5064538670426316e-02
7.000000000000001e-01  4.5438458985616631e-02  1.0779553945706319e-01  4.5039090358012575e-02  9.8578697939011181e-02  9.3694208988437577e-01 -3.1750643670063483e-01 -3.2116512815623888e-02 -4.7630069954118039e-02
                         3.9045371909795935e-02  1.0800777336143057e-01  4.3600759498102361e-02  1.0818680912399577e-01 -2.8696254642330818e-02 -4.7735422138649043e-02  9.1397740687855444e-01 -3.4271322623439493e-01
                         9.0267870865339173e-01 -3.0817800092539988e-01 -2.9732324315748671e-02 -4.7644405390912546e-02  4.6744430188528245e-02  1.0620412356831439e-01  3.8601618757486626e-02  9.8874503802686017e-02
                        -2.6929552885735453e-02 -4.8223464518438272e-02  8.9780732654129225e-01 -3.2452903360677038e-01  4.4820787819205191e-02  1.0066119815118954e-01  4.3711274867706797e-02  1.0166146348221532e-01
8.000000000000000e-01  6.1476771822830886e-02  1.2002301393602954e-01  5.8695543541274514e-02  1.1785952839091265e-01  1.0334820178748794e+00 -3.5234873665381328e-01 -3.6430434042554798e-02 -5.3699651540437501e-02
                         5.1826088364551978e-02  1.1728866357066096e-01  5.1931945772153057e-02  1.1709120387443039e-01 -3.8843726951266949e-02 -4.7286711672840598e-02  8.8999655034464376e-01 -3.7374729927118761e-01
                         9.4564175430804709e-01 -3.5797813780027837e-01 -3.6935755970854370e-02 -5.0073417724631093e-02  6.1546951532086697e-02  1.1028731222441107e-01  5.7769325311956971e-02  1.1903603597943464e-01
                        -3.7535888556814209e-02 -5.0489348659752332e-02  8.4779757987067006e-01 -3.6739322175475236e-01  5.1864353215689628e-02  1.0915023724794738e-01  5.6777138840733654e-02  1.1224241050594805e-01
9.000000000000000e-01  7.2840419370488657e-02  1.2352947735830287e-01  6.1812466779499552e-02  1.3043011178937916e-01  8.2107788091555900e-01 -4.3200810296761277e-01 -4.5444952532514640e-02 -5.4391521530289061e-02
                         6.0219559387827200e-02  1.2887470409108512e-01  7.2159335430661012e-02  1.3293042510571271e-01 -4.7952013603344973e-02 -5.2766918153219378e-02  8.6821811563322049e-01 -4.1408646062374421e-01
                         8.6417769730364680e-01 -3.8138112907174765e-01 -4.6033005853750003e-02 -5.1706831060517232e-02  7.1604117284150559e-02  1.3145762193380384e-01  6.1231497763649050e-02  1.1059007081793962e-01
                        -4.3523747527372265e-02 -4.7774289446713573e-02  8.8121522596822999e-01 -4.1048674849364541e-01  6.6100368873322379e-02  1.2710700135535186e-01  6.9366885250900970e-02  1.3537405607596339e-01
1.000000000000000e+00  8.0340507532399852e-02  1.2761364695480037e-01  7.2041425659656433e-02  1.2192585388536899e-01  8.5399606785351490e-01 -4.4069415772600057e-01 -5.1760572428945932e-02 -4.9010619028378222e-02
                         7.6138098604028356e-02  1.0996162041611970e-01  8.7866296408468506e-02  1.3534297876790960e-01 -5.1536107390221339e-02 -5.2049688547542154e-02  9.1328777486241830e-01 -4.2154001318344286e-01
                         8.0601925275260111e-01 -4.5562199095043499e-01 -5.5074108442684601e-02 -5.5364958723108065e-02  8.8094534451244905e-02  1.2319748439050916e-01  7.9158018083153772e-02  1.3948735328992382e-01
                        -5.2246288824408259e-02 -5.2164351569109597e-02  8.5462669744695918e-01 -4.5483191922033073e-01  7.9524496756460492e-02  1.1626982716438283e-01  8.1356204150372452e-02  1.3817595687298206e-01
1.100000000000000e+00  9.6285848904979293e-02  1.4739035531811526e-01  1.0114599600994226e-01  1.3384965096642862e-01  8.2242161078990572e-01 -5.3200691965493607e-01 -5.7481322583818453e-02 -4.9711417195253724e-02
                         8.9453293208065915e-02  1.2926714559510533e-01  9.9223780219771754e-02  1.3747179557726724e-01 -6.4423716326834302e-02 -4.8554581070134717e-02  8.4358198655611327e-01 -4.5810908815925228e-01
                         7.8327445783055616e-01 -4.6551377940338673e-01 -5.8076183285706864e-02 -4.6701697542588343e-02  9.1212895898911642e-02  1.4921357962260334e-01  9.5241578331994203e-02  1.2816474110136014e-01
                        -6.9798449987331493e-02 -5.3344525935087164e-02  7.9383961889931431e-01 -5.3365078766911556e-01  8.2531614823808441e-02  1.2923153281244806e-01  9.9928077330734263e-02  1.4161845412976734e-01
1.200000000000000e+00  1.1115716498006636e-01  1.3463037690878993e-01  9.9718488844043315e-02  1.2875642865141126e-01  8.2488043492022989e-01 -5.2846002739466835e-01 -7.2434643424683462e-02 -4.8734468233115662e-02
                         1.0798658562559670e-01  1.3600386220144992e-01  1.1443158874632728e-01  1.5413725918372972e-01 -7.3763236733750612e-02 -4.9197783831896783e-02  7.9997085817218250e-01 -5.4691825435267338e-01
                         7.8358435059089271e-01 -4.7765478197324462e-01 -6.7144593225538104e-02 -4.7967706793711255e-02  1.0563360951367662e-01  1.4084898099800222e-01  1.0595934329703753e-01  1.3805992707219603e-01
                        -7.3142431116505188e-02 -4.9287475883199448e-02  7.8925402664469813e-01 -5.1157232378433393e-01  1.1374857843107433e-01  1.2328820185559707e-01  1.1066866113841350e-01  1.3662786290699463e-01
1.300000000000000e+00  1.2423992670716713e-01  1.5520677782117318e-01  1.2987320942638528e-01  1.2185894420126266e-01  7.8161214918907529e-01 -5.3291343387123946e-01 -7.8509719087976951e-02 -4.7803334557443712e-02
                         1.2079992632396153e-01  1.3689630536673453e-01  1.2909691034143903e-01  1.4023042266880506e-01 -7.3967453745545461e-02 -4.7724436353702181e-02  7.9446986205457448e-01 -5.1489116498367771e-01
                         7.7650278346608259e-01 -5.7006341214761891e-01 -7.7164953914804824e-02 -5.0842307271438764e-02  1.3213910777586946e-01  1.5238214230407224e-01  1.2223796704433733e-01  1.3313926277448243e-01
                        -8.1203582490334131e-02 -4.7440231629875929e-02  7.9872753511470496e-01 -5.4450309592396162e-01  1.2251340928358290e-01  1.3283856694885904e-01  1.2021329890245844e-01  1.4349495876716500e-01
1.400000000000000e+00  1.3922446643491629e-01  1.5119330064297326e-01  1.2835180461485843e-01  1.2741312208229802e-01  7.3819332688950823e-01 -5.4867754151840997e-01 -8.0887306473276535e-02 -4.1961321604608283e-02
                         1.3324898829000206e-01  1.5241440438277942e-01  1.3696827739468825e-01  1.4391174755463881e-01 -8.4262532186957492e-02 -4.6385043753607150e-02  8.0511514814286045e-01 -5.7984957611425525e-01
                         7.2553074853292354e-01 -5.9752865821295664e-01 -8.2391824185426649e-02 -4.6735615077400192e-02  1.5110212124219657e-01  1.4344766323291186e-01  1.4251572978934365e-01  1.3431840413967905e-01
                        -9.2618648313275959e-02 -4.1505587755774100e-02  7.0159727762575064e-01 -5.9535489526190266e-01  1.3255790838186882e-01  1.3883152078317373e-01  1.3875222106236298e-01  1.4422157932838783e-01
1.500000000000000e+00  1.4275547263782348e-01  1.4448989375361154e-01  1.4565096686094822e-01  1.3578271444140957e-01  6.8145269702066202e-01 -6.3147379541475401e-01 -9.2421682393415486e-02 -3.8842212614531559e-02
                         1.4429720246658545e-01  1.5314137632118791e-01  1.5780445330973680e-01  1.5419678460946823e-01 -8.8941518018369414e-02 -3.8524829989977541e-02  6.0701181769645596e-01 -6.1830280128313375e-01
                         7.0978163785591020e-01 -5.4785385110474538e-01 -9.4173945560095951e-02 -4.1040057074773810e-02  1.5046175774274007e-01  1.4232879156861009e-01  1.4420580128561394e-01  1.4180787206837270e-01
                        -9.3639037565980132e-02 -4.1017996958356694e-02  6.7062509026792572e-01 -5.6426754475333651e-01  1.4521257247858954e-01  1.3878072685013620e-01  1.6397220445833816e-01  1.4776988153431900e-01
1.600000000000000e+00  1.5912054486454269e-01  1.5462152705928225e-01  1.6205267089521522e-01  1.3430217992352109e-01  6.8803769186144104e-01 -6.7710565863130356e-01 -9.9834096308236545e-02 -3.1891834420318642e-02
                         1.6808495481124022e-01  1.3979797246746120e-01  1.5493223834849176e-01  1.4698316668498573e-01 -9.8891760912859797e-02 -3.3786759732727351e-02  6.9926765650857448e-01 -6.2803782371952488e-01
                         6.9666362864313569e-01 -6.7636497838117515e-01 -9.8270457814614728e-02 -3.5596207238361120e-02  1.6191523583172379e-01  1.5062175375164524e-01  1.5759426749420455e-01  1.3222813092929706e-01
                        -9.8544482294271998e-02 -3.6193769607321020e-02  7.3957966838064526e-01 -7.0030905630180607e-01  1.6034027697911077e-01  1.4875861467372328e-01  1.6609816289059426e-01  1.5945568797271362e-01
1.700000000000000e+00  1.9972197731993188e-01  1.3763404237793228e-01  1.8181736659958631e-01  1.3251540002288781e-01  6.6719505370417787e-01 -6.2191921743320189e-01 -1.0467997822892906e-01 -2.8638348401748479e-02
                         1.5360619133147355e-01  1.3167566730390609e-01  1.6627863811402574e-01  1.3935283763990353e-01 -9.5621689381950870e-02 -2.6027536913887352e-02  6.7469722952549060e-01 -6.6108932392539299e-01
                         7.2621958944286780e-01 -6.6309219252733276e-01 -1.0125662890364090e-01 -2.7432022256433253e-02  1.8564714278339062e-01  1.4830979929708590e-01  1.7599056239382460e-01  1.3096413526538031e-01
                        -1.0609566241882475e-01 -2.8354458073316879e-02  6.4430109287882864e-01 -6.5032558325685108e-01  1.6265813120278694e-01  1.3989426898440524e-01  1.9118799261475941e-01  1.3463627809577355e-01
1.800000000000000e+00  2.0391441181241685e-01  1.3621351819831948e-01  1.7296704717981465e-01  1.3310212958933518e-01  6.4990774282597408e-01 -7.1129576690902796e-01 -1.1433306681034551e-01 -2.2111476172563222e-02
                         1.7917964780747853e-01  1.2755981988891635e-01  2.0312567406067211e-01  1.4932294159747347e-01 -1.1250193980543662e-01 -2.0286160987709138e-02  6.2904207346737329e-01 -6.2380058207459022e-01
                         6.2957952846475851e-01 -6.7451566176901279e-01 -1.0925418242416171e-01 -2.1813739237921344e-02  1.9754756115303906e-01  1.3998964814356188e-01  1.7881429525137571e-01  1.3543523431800647e-01
                        -1.0409506171512266e-01 -2.1709348664257309e-02  6.1988349379795682e-01 -6.3673638795894327e-01  1.9678507286411664e-01  1.2671689909267955e-01  1.8782312555610500e-01  1.3796719653957382e-01
1.900000000000000e+00  2.1864129945659994e-01  1.3286990336680249e-01  2.0669467841742090e-01  1.2109242244719412e-01  5.1611601572249000e-01 -7.4684439682800974e-01 -1.1386380945537999e-01 -1.5018563751199285e-02
                         1.8081097802174018e-01  1.1843087652345678e-01  2.1523267437633761e-01  1.4692216254017376e-01 -1.1670609662001130e-01 -1.4970789187476104e-02  5.6143390949704641e-01 -6.8223841540547214e-01
                         5.8866405453287496e-01 -6.7599536717174158e-01 -1.1341713280616648e-01 -1.4390940834189883e-02  1.8372265257325418e-01  1.4138539023687960e-01  2.0070630520335761e-01  1.2183534000385056e-01
                        -1.0235955233484582e-01 -1.3636076819755569e-02  5.8729741007892156e-01 -6.6759153904258861e-01  1.7385461889124904e-01  1.2336078090473926e-01  2.1332670651968222e-01  1.3452017946821360e-01
2.000000000000000e+00  2.2723558908451830e-01  1.3036359379840481e-01  2.1603079231049457e-01  1.1864463435951436e-01  5.5272146145105927e-01 -7.0217598266231951e-01 -1.0936588554610242e-01 -7.6698448993925382e-03
                         2.0029243121948778e-01  1.2464385811380090e-01  2.2373216942327145e-01  1.2377268313754872e-01 -1.2266986988274259e-01 -7.6486543777501033e-03  5.4616815728980816e-01 -7.5342654966547506e-01
                         5.6933081049892975e-01 -7.5851785085599299e-01 -1.2202822281928499e-01 -7.7707630113306655e-03  1.9475471137007880e-01  1.3716466860163876e-01  2.1419070143687072e-01  1.2296108623936290e-01
                        -1.1737284242703953e-01 -6.5937751463496300e-03  5.5314641477806792e-01 -7.8420405375721491e-01  2.0222776767517919e-01  1.2386659554550185e-01  2.2688690473017112e-01  1.2862524145580728e-01
2.100000000000000e+00  2.1713551436784950e-01  1.3698907753736228e-01  2.2084942630469181e-01  1.2120965984328562e-01  4.6810164969383883e-01 -6.9320179302601703e-01 -1.1785674205274999e-01  1.0722217122434348e-04
                         2.1244170783955219e-01  1.0957219617488669e-01  2.3331769024006419e-01  1.3501088411511278e-01 -1.2620867311338316e-01  1.0817098693471928e-04  4.8653050509796308e-01 -7.3451299193312136e-01
                         5.2754782119362531e-01 -7.4233039976411253e-01 -1.1382185279290559e-01  1.1309662024256272e-04  2.2154858338162145e-01  1.2755617915524298e-01  2.1733925565239240e-01  1.0833264624660326e-01
                        -1.1763041970788890e-01  1.0432547470610541e-04  5.1932547472766821e-01 -7.9862966823156456e-01  2.0447030095748783e-01  1.1184659711184436e-01  2.2233118119348433e-01  1.2235868869608366e-01
2.200000000000000e+00  2.6487317396563170e-01  1.1468792108944871e-01  2.1107387296777677e-01  1.0321815397889998e-01  4.8413987506340794e-01 -7.9685531814629795e-01 -1.2520628572850953e-01  7.3278709662825065e-03
                         2.3985651157456339e-01  1.0367182734122637e-01  2.3581740411700680e-01  1.1114863578099222e-01 -1.3072940524387860e-01  7.1396746002937196e-03  4.9293170977616751e-01 -7.7462637198830153e-01
                         4.2956229275926705e-01 -7.5881829206822360e-01 -1.2217481837469633e-01  7.2813890993723915e-03  2.3311965536485277e-01  1.2260848925351796e-01  2.3693453624389954e-01  1.0099335214550867e-01
                        -1.2385267603946482e-01  7.7632921028954289e-03  5.0919193322923972e-01 -7.8706883369453839e-01  2.3065468835851968e-01  1.0608424156487889e-01  2.4272376596365372e-01  1.1218578097286673e-01
2.300000000000000e+00  2.3848427411412193e-01  1.1064830136874883e-01  2.3676988735056909e-01  9.1953748519397083e-02  4.4681427199898927e-01 -8.6570673713935353e-01 -1.2701650314481733e-01  1.5775487754868932e-02
                         2.1428953973285564e-01  8.9252087567109270e-02  2.5520551892502807e-01  1.0779231145868090e-01 -1.2145813066469097e-01  1.5170373227129406e-02  4.6457352376314998e-01 -7.4310212747886983e-01
                         5.0003013402909602e-01 -7.4837932340915070e-01 -1.2291554037583460e-01  1.5333823817356275e-02  2.6657123193865107e-01  1.0777021727584055e-01  2.3279823849477174e-01  1.0035762400123360e-01
                        -1.1852701758758699e-01  1.4276996067123982e-02  4.3681733465683931e-01 -7.6766147004820673e-01  2.2541418825778131e-01  1.0452885538374299e-01  2.3509827600599154e-01  1.0615236125915398e-01
