! www.PolarInstruments.com
! File Export V10.11 [9.03]
! For hxji@mail.xidian.edu.cn;QQ=47399897
! File : D:\SJTU\Bachelor\thesis\Multi-line\transmission-line-params-extractor\data\1line\1line_Polar_500mil.s2p
! Polar  PCB Transmission Line Field Solver  v11.04.00
# MHz S DB R 50.00
!
! Line Length = 0.013m ( 0.50 inch )
!
!
!    PORT#                               PORT#
!    Z1 = 50.00                           Z2 = 50.00
!           --------------------------
!          |                          |
!      1 --|                          |-- 2
!          |                          |
!           --------------------------
!
! PORT 1: INPUT NET 1
! PORT 2: OUTPUT NET 1
!
!
!
! FREQ                  S11                         S21                       S12                         S22
!                  DB           ANG          DB           ANG          DB           ANG          DB           ANG
100.000000      -62.606088      78.504    -0.010047      -2.701    -0.010047      -2.701   -62.606088      78.504
200.000000      -58.715942      88.642    -0.017626      -5.384    -0.017626      -5.384   -58.715942      88.642
300.000000      -56.119381      93.947    -0.024330      -8.065    -0.024330      -8.065   -56.119381      93.947
400.000000      -54.134285      96.840    -0.030508     -10.744    -0.030508     -10.744   -54.134285      96.840
500.000000      -52.524367      98.318    -0.036346     -13.422    -0.036346     -13.422   -52.524367      98.318
600.000000      -51.173166      98.884    -0.041945     -16.100    -0.041945     -16.100   -51.173166      98.884
700.000000      -50.013008      98.824    -0.047366     -18.777    -0.047366     -18.777   -50.013008      98.824
800.000000      -49.000604      98.314    -0.052650     -21.454    -0.052650     -21.454   -49.000604      98.314
900.000000      -48.106438      97.469    -0.057821     -24.130    -0.057821     -24.130   -48.106438      97.469
1000.000000      -47.309436      96.365    -0.062901     -26.806    -0.062901     -26.806   -47.309436      96.365
1100.000000      -46.594014      95.059    -0.067903     -29.482    -0.067903     -29.482   -46.594014      95.059
1200.000000      -45.948319      93.590    -0.072838     -32.157    -0.072838     -32.157   -45.948319      93.590
1300.000000      -45.363138      91.988    -0.077716     -34.833    -0.077716     -34.833   -45.363138      91.988
1400.000000      -44.831165      90.277    -0.082543     -37.508    -0.082543     -37.508   -44.831165      90.277
1500.000000      -44.346525      88.474    -0.087326     -40.183    -0.087326     -40.183   -44.346525      88.474
1600.000000      -43.904424      86.592    -0.092068     -42.858    -0.092068     -42.858   -43.904424      86.592
1700.000000      -43.500908      84.645    -0.096773     -45.533    -0.096773     -45.533   -43.500908      84.645
1800.000000      -43.132690      82.640    -0.101446     -48.208    -0.101446     -48.208   -43.132690      82.640
1900.000000      -42.797008      80.585    -0.106090     -50.883    -0.106090     -50.883   -42.797008      80.585
2000.000000      -42.491532      78.487    -0.110706     -53.557    -0.110706     -53.557   -42.491532      78.487
2100.000000      -42.214284      76.350    -0.115296     -56.232    -0.115296     -56.232   -42.214284      76.350
2200.000000      -41.963582      74.180    -0.119864     -58.907    -0.119864     -58.907   -41.963582      74.180
2300.000000      -41.737986      71.981    -0.124410     -61.581    -0.124410     -61.581   -41.737986      71.981
2400.000000      -41.536270      69.754    -0.128936     -64.255    -0.128936     -64.255   -41.536270      69.754
2500.000000      -41.357385      67.505    -0.133443     -66.930    -0.133443     -66.930   -41.357385      67.505
2600.000000      -41.200439      65.233    -0.137932     -69.604    -0.137932     -69.604   -41.200439      65.233
2700.000000      -41.064679      62.943    -0.142405     -72.278    -0.142405     -72.278   -41.064679      62.943
2800.000000      -40.949473      60.636    -0.146863     -74.952    -0.146863     -74.952   -40.949473      60.636
2900.000000      -40.854300      58.314    -0.151305     -77.626    -0.151305     -77.626   -40.854300      58.314
3000.000000      -40.778739      55.977    -0.155733     -80.300    -0.155733     -80.300   -40.778739      55.977
3100.000000      -40.722463      53.629    -0.160148     -82.974    -0.160148     -82.974   -40.722463      53.629
3200.000000      -40.685233      51.269    -0.164550     -85.648    -0.164550     -85.648   -40.685233      51.269
3300.000000      -40.666891      48.900    -0.168939     -88.322    -0.168939     -88.322   -40.666891      48.900
3400.000000      -40.667363      46.521    -0.173317     -90.995    -0.173317     -90.995   -40.667363      46.521
3500.000000      -40.686654      44.135    -0.177683     -93.669    -0.177683     -93.669   -40.686654      44.135
3600.000000      -40.724848      41.743    -0.182038     -96.343    -0.182038     -96.343   -40.724848      41.743
3700.000000      -40.782112      39.344    -0.186382     -99.017    -0.186382     -99.017   -40.782112      39.344
3800.000000      -40.858697      36.940    -0.190716    -101.690    -0.190716    -101.690   -40.858697      36.940
3900.000000      -40.954943      34.533    -0.195040    -104.364    -0.195040    -104.364   -40.954943      34.533
4000.000000      -41.071288      32.122    -0.199354    -107.037    -0.199354    -107.037   -41.071288      32.122
4100.000000      -41.208270      29.709    -0.203658    -109.711    -0.203658    -109.711   -41.208270      29.709
4200.000000      -41.366545      27.295    -0.207953    -112.384    -0.207953    -112.384   -41.366545      27.295
4300.000000      -41.546893      24.880    -0.212238    -115.058    -0.212238    -115.058   -41.546893      24.880
4400.000000      -41.750241      22.467    -0.216515    -117.731    -0.216515    -117.731   -41.750241      22.467
4500.000000      -41.977681      20.055    -0.220783    -120.404    -0.220783    -120.404   -41.977681      20.055
4600.000000      -42.230494      17.647    -0.225042    -123.078    -0.225042    -123.078   -42.230494      17.647
4700.000000      -42.510187      15.243    -0.229292    -125.751    -0.229292    -125.751   -42.510187      15.243
4800.000000      -42.818530      12.846    -0.233534    -128.424    -0.233534    -128.424   -42.818530      12.846
4900.000000      -43.157611      10.457    -0.237768    -131.098    -0.237768    -131.098   -43.157611      10.457
5000.000000      -43.529904       8.079    -0.241994    -133.771    -0.241994    -133.771   -43.529904       8.079
5100.000000      -43.938354       5.715    -0.246212    -136.444    -0.246212    -136.444   -43.938354       5.715
5200.000000      -44.386494       3.368    -0.250423    -139.117    -0.250423    -139.117   -44.386494       3.368
5300.000000      -44.878601       1.043    -0.254626    -141.790    -0.254626    -141.790   -44.878601       1.043
5400.000000      -45.419901      -1.255    -0.258821    -144.464    -0.258821    -144.464   -45.419901      -1.255
5500.000000      -46.016865      -3.518    -0.263010    -147.137    -0.263010    -147.137   -46.016865      -3.518
5600.000000      -46.677614      -5.735    -0.267191    -149.810    -0.267191    -149.810   -46.677614      -5.735
5700.000000      -47.412525      -7.893    -0.271366    -152.483    -0.271366    -152.483   -47.412525      -7.893
5800.000000      -48.235119      -9.972    -0.275534    -155.156    -0.275534    -155.156   -48.235119      -9.972
5900.000000      -49.163456     -11.942    -0.279695    -157.829    -0.279695    -157.829   -49.163456     -11.942
6000.000000      -50.222373     -13.759    -0.283850    -160.502    -0.283850    -160.502   -50.222373     -13.759
6100.000000      -51.447289     -15.350    -0.288000    -163.175    -0.288000    -163.175   -51.447289     -15.350
6200.000000      -52.891060     -16.586    -0.292143    -165.848    -0.292143    -165.848   -52.891060     -16.586
6300.000000      -54.637221     -17.228    -0.296281    -168.521    -0.296281    -168.521   -54.637221     -17.228
6400.000000      -56.827865     -16.760    -0.300413    -171.194    -0.300413    -171.194   -56.827865     -16.760
6500.000000      -59.726857     -13.859    -0.304540    -173.867    -0.304540    -173.867   -59.726857     -13.859
6600.000000      -63.841384      -4.074    -0.308662    -176.540    -0.308662    -176.540   -63.841384      -4.074
6700.000000      -69.030811      32.020    -0.312779    -179.213    -0.312779    -179.213   -69.030811      32.020
6800.000000      -66.923789      92.398    -0.316892     178.114    -0.316892     178.114   -66.923789      92.398
6900.000000      -61.899162     112.867    -0.321001     175.441    -0.321001     175.441   -61.899162     112.867
7000.000000      -58.390262     118.704    -0.325105     172.768    -0.325105     172.768   -58.390262     118.704
7100.000000      -55.843317     120.295    -0.329206     170.095    -0.329206     170.095   -55.843317     120.295
7200.000000      -53.870526     120.186    -0.333303     167.422    -0.333303     167.422   -53.870526     120.186
7300.000000      -52.271513     119.237    -0.337396     164.749    -0.337396     164.749   -52.271513     119.237
7400.000000      -50.934165     117.815    -0.341486     162.076    -0.341486     162.076   -50.934165     117.815
7500.000000      -49.790323     116.101    -0.345574     159.403    -0.345574     159.403   -49.790323     116.101
7600.000000      -48.795716     114.194    -0.349658     156.730    -0.349658     156.730   -48.795716     114.194
7700.000000      -47.920055     112.153    -0.353740     154.057    -0.353740     154.057   -47.920055     112.153
7800.000000      -47.141750     110.014    -0.357819     151.384    -0.357819     151.384   -47.141750     110.014
7900.000000      -46.444894     107.804    -0.361896     148.711    -0.361896     148.711   -46.444894     107.804
8000.000000      -45.817443     105.539    -0.365971     146.038    -0.365971     146.038   -45.817443     105.539
8100.000000      -45.250074     103.230    -0.370044     143.365    -0.370044     143.365   -45.250074     103.230
8200.000000      -44.735429     100.888    -0.374115     140.692    -0.374115     140.692   -44.735429     100.888
8300.000000      -44.267612      98.518    -0.378185     138.019    -0.378185     138.019   -44.267612      98.518
8400.000000      -43.841833      96.125    -0.382252     135.346    -0.382252     135.346   -43.841833      96.125
8500.000000      -43.454155      93.714    -0.386319     132.673    -0.386319     132.673   -43.454155      93.714
8600.000000      -43.101313      91.288    -0.390384     130.000    -0.390384     130.000   -43.101313      91.288
8700.000000      -42.780576      88.849    -0.394447     127.327    -0.394447     127.327   -42.780576      88.849
8800.000000      -42.489646      86.399    -0.398510     124.654    -0.398510     124.654   -42.489646      86.399
8900.000000      -42.226577      83.940    -0.402571     121.981    -0.402571     121.981   -42.226577      83.940
9000.000000      -41.989719      81.474    -0.406630     119.308    -0.406630     119.308   -41.989719      81.474
9100.000000      -41.777668      79.002    -0.410689     116.636    -0.410689     116.636   -41.777668      79.002
9200.000000      -41.589229      76.524    -0.414747     113.963    -0.414747     113.963   -41.589229      76.524
9300.000000      -41.423385      74.043    -0.418803     111.290    -0.418803     111.290   -41.423385      74.043
9400.000000      -41.279276      71.558    -0.422858     108.617    -0.422858     108.617   -41.279276      71.558
9500.000000      -41.156181      69.070    -0.426912     105.944    -0.426912     105.944   -41.156181      69.070
9600.000000      -41.053498      66.581    -0.430964     103.271    -0.430964     103.271   -41.053498      66.581
9700.000000      -40.970737      64.090    -0.435015     100.598    -0.435015     100.598   -40.970737      64.090
9800.000000      -40.907509      61.599    -0.439065      97.926    -0.439065      97.926   -40.907509      61.599
9900.000000      -40.863516      59.107    -0.443113      95.253    -0.443113      95.253   -40.863516      59.107
10000.000000      -40.838553      56.617    -0.447160      92.580    -0.447160      92.580   -40.838553      56.617
10100.000000      -40.832494      54.127    -0.451205      89.907    -0.451205      89.907   -40.832494      54.127
10200.000000      -40.845299      51.640    -0.455248      87.235    -0.455248      87.235   -40.845299      51.640
10300.000000      -40.877008      49.155    -0.459289      84.562    -0.459289      84.562   -40.877008      49.155
10400.000000      -40.927744      46.673    -0.463329      81.889    -0.463329      81.889   -40.927744      46.673
10500.000000      -40.997713      44.194    -0.467366      79.216    -0.467366      79.216   -40.997713      44.194
10600.000000      -41.087211      41.721    -0.471401      76.544    -0.471401      76.544   -41.087211      41.721
10700.000000      -41.196626      39.253    -0.475434      73.871    -0.475434      73.871   -41.196626      39.253
10800.000000      -41.326446      36.791    -0.479464      71.199    -0.479464      71.199   -41.326446      36.791
10900.000000      -41.477269      34.336    -0.483492      68.526    -0.483492      68.526   -41.477269      34.336
11000.000000      -41.649814      31.890    -0.487517      65.853    -0.487517      65.853   -41.649814      31.890
11100.000000      -41.844938      29.454    -0.491540      63.181    -0.491540      63.181   -41.844938      29.454
11200.000000      -42.063648      27.030    -0.495560      60.508    -0.495560      60.508   -42.063648      27.030
11300.000000      -42.307134      24.619    -0.499576      57.836    -0.499576      57.836   -42.307134      24.619
11400.000000      -42.576788      22.223    -0.503590      55.163    -0.503590      55.163   -42.576788      22.223
11500.000000      -42.874247      19.845    -0.507601      52.490    -0.507601      52.490   -42.874247      19.845
11600.000000      -43.201436      17.488    -0.511609      49.818    -0.511609      49.818   -43.201436      17.488
11700.000000      -43.560626      15.156    -0.515614      47.145    -0.515614      47.145   -43.560626      15.156
11800.000000      -43.954509      12.854    -0.519616      44.473    -0.519616      44.473   -43.954509      12.854
11900.000000      -44.386299      10.587    -0.523614      41.800    -0.523614      41.800   -44.386299      10.587
12000.000000      -44.859855       8.362    -0.527609      39.128    -0.527609      39.128   -44.859855       8.362
12100.000000      -45.379860       6.189    -0.531601      36.455    -0.531601      36.455   -45.379860       6.189
12200.000000      -45.952046       4.080    -0.535590      33.783    -0.535590      33.783   -45.952046       4.080
12300.000000      -46.583527       2.051    -0.539576      31.111    -0.539576      31.111   -46.583527       2.051
12400.000000      -47.283247       0.125    -0.543558      28.438    -0.543558      28.438   -47.283247       0.125
12500.000000      -48.062642      -1.666    -0.547538      25.766    -0.547538      25.766   -48.062642      -1.666
12600.000000      -48.936612      -3.279    -0.551514      23.093    -0.551514      23.093   -48.936612      -3.279
12700.000000      -49.924996      -4.644    -0.555488      20.421    -0.555488      20.421   -49.924996      -4.644
12800.000000      -51.054863      -5.656    -0.559458      17.748    -0.559458      17.748   -51.054863      -5.656
12900.000000      -52.364141      -6.138    -0.563426      15.076    -0.563426      15.076   -52.364141      -6.138
13000.000000      -53.907316      -5.781    -0.567391      12.403    -0.567391      12.403   -53.907316      -5.781
13100.000000      -55.763431      -3.985    -0.571354       9.731    -0.571354       9.731   -55.763431      -3.985
13200.000000      -58.039839       0.524    -0.575314       7.058    -0.575314       7.058   -58.039839       0.524
13300.000000      -60.812380      10.738    -0.579272       4.386    -0.579272       4.386   -60.812380      10.738
13400.000000      -63.613409      33.085    -0.583228       1.713    -0.583228       1.713   -63.613409      33.085
13500.000000      -64.084282      68.415    -0.587181      -0.959    -0.587181      -0.959   -64.084282      68.415
13600.000000      -61.580643      94.888    -0.591133      -3.632    -0.591133      -3.632   -61.580643      94.888
13700.000000      -58.712131     107.433    -0.595083      -6.304    -0.595083      -6.304   -58.712131     107.433
13800.000000      -56.317276     113.002    -0.599031      -8.977    -0.599031      -8.977   -56.317276     113.002
13900.000000      -54.371393     115.328    -0.602978     -11.649    -0.602978     -11.649   -54.371393     115.328
14000.000000      -52.763317     115.982    -0.606924     -14.322    -0.606924     -14.322   -52.763317     115.982
14100.000000      -51.406545     115.681    -0.610868     -16.994    -0.610868     -16.994   -51.406545     115.681
14200.000000      -50.241169     114.790    -0.614812     -19.667    -0.614812     -19.667   -50.241169     114.790
14300.000000      -49.225694     113.510    -0.618754     -22.339    -0.618754     -22.339   -49.225694     113.510
14400.000000      -48.330703     111.962    -0.622696     -25.012    -0.622696     -25.012   -48.330703     111.962
14500.000000      -47.534779     110.220    -0.626638     -27.684    -0.626638     -27.684   -47.534779     110.220
14600.000000      -46.821933     108.336    -0.630579     -30.357    -0.630579     -30.357   -46.821933     108.336
14700.000000      -46.179954     106.343    -0.634519     -33.029    -0.634519     -33.029   -46.179954     106.343
14800.000000      -45.599338     104.266    -0.638460     -35.702    -0.638460     -35.702   -45.599338     104.266
14900.000000      -45.072553     102.123    -0.642400     -38.374    -0.642400     -38.374   -45.072553     102.123
15000.000000      -44.593551      99.926    -0.646340     -41.047    -0.646340     -41.047   -44.593551      99.926
15100.000000      -44.157406      97.685    -0.650280     -43.719    -0.650280     -43.719   -44.157406      97.685
15200.000000      -43.760067      95.410    -0.654221     -46.392    -0.654221     -46.392   -43.760067      95.410
15300.000000      -43.398168      93.105    -0.658161     -49.064    -0.658161     -49.064   -43.398168      93.105
15400.000000      -43.068892      90.775    -0.662102     -51.737    -0.662102     -51.737   -43.068892      90.775
15500.000000      -42.769868      88.425    -0.666044     -54.410    -0.666044     -54.410   -42.769868      88.425
15600.000000      -42.499086      86.058    -0.669985     -57.082    -0.669985     -57.082   -42.499086      86.058
15700.000000      -42.254840      83.677    -0.673927     -59.755    -0.673927     -59.755   -42.254840      83.677
15800.000000      -42.035675      81.284    -0.677869     -62.427    -0.677869     -62.427   -42.035675      81.284
15900.000000      -41.840352      78.880    -0.681811     -65.100    -0.681811     -65.100   -41.840352      78.880
16000.000000      -41.667815      76.469    -0.685754     -67.772    -0.685754     -67.772   -41.667815      76.469
16100.000000      -41.517168      74.051    -0.689697     -70.445    -0.689697     -70.445   -41.517168      74.051
16200.000000      -41.387654      71.627    -0.693640     -73.117    -0.693640     -73.117   -41.387654      71.627
16300.000000      -41.278642      69.200    -0.697583     -75.790    -0.697583     -75.790   -41.278642      69.200
16400.000000      -41.189611      66.769    -0.701526     -78.462    -0.701526     -78.462   -41.189611      66.769
16500.000000      -41.120144      64.337    -0.705470     -81.135    -0.705470     -81.135   -41.120144      64.337
