! www.PolarInstruments.com
! File Export V10.11 [9.03]
! For hxji@mail.xidian.edu.cn;QQ=47399897
! File : D:\SJTU\Bachelor\thesis\Multi-line\code\data\SI\CPL_1in_20200202.s4p
! Polar  PCB Transmission Line Field Solver  v11.04.00
# MHz S RI R 50.00
!
! Line Length = 0.025m ( 1.00 inch )
!
!
!	           PORT NUMBERING (Classic style)
!	    PORT#                               PORT#
!	    Z1 = Z2 = 50.00                     Z3 = Z4 = 50.00
!	           --------------------------
!	          |                          |
!	      1 --|                          |-- 3
!	          |                          |
!	      2 --|                          |-- 4
!	          |                          |
!	           --------------------------
!
!
!
! FREQ MHz                S11                       S12                       S13                       S14
!                         S21                       S22                       S23                       S24
!                         S31                       S32                       S33                       S34
!                         S41                       S42                       S43                       S44
!                  REAL         IMAG         REAL         IMAG         REAL         IMAG         REAL         IMAG
1000.000000        0.237655     0.149474     0.179168     0.099184     0.553189    -0.724607    -0.108788    -0.006967
                  0.179168     0.099184     0.237655     0.149474    -0.108788    -0.006967     0.553189    -0.724607
                  0.553189    -0.724607    -0.108788    -0.006967     0.237655     0.149474     0.179168     0.099184
                 -0.108788    -0.006967     0.553189    -0.724607     0.179168     0.099184     0.237655     0.149474

1010.000000        0.240148     0.148285     0.180874     0.098095     0.546638    -0.728509    -0.109324    -0.005605
                  0.180874     0.098095     0.240148     0.148285    -0.109324    -0.005605     0.546638    -0.728509
                  0.546638    -0.728509    -0.109324    -0.005605     0.240148     0.148285     0.180874     0.098095
                 -0.109324    -0.005605     0.546638    -0.728509     0.180874     0.098095     0.240148     0.148285

1020.000000        0.242614     0.147058     0.182553     0.096980     0.540075    -0.732353    -0.109831    -0.004234
                  0.182553     0.096980     0.242614     0.147058    -0.109831    -0.004234     0.540075    -0.732353
                  0.540075    -0.732353    -0.109831    -0.004234     0.242614     0.147058     0.182553     0.096980
                 -0.109831    -0.004234     0.540075    -0.732353     0.182553     0.096980     0.242614     0.147058

1030.000000        0.245051     0.145793     0.184207     0.095841     0.533501    -0.736140    -0.110309    -0.002857
                  0.184207     0.095841     0.245051     0.145793    -0.110309    -0.002857     0.533501    -0.736140
                  0.533501    -0.736140    -0.110309    -0.002857     0.245051     0.145793     0.184207     0.095841
                 -0.110309    -0.002857     0.533501    -0.736140     0.184207     0.095841     0.245051     0.145793

1040.000000        0.247458     0.144492     0.185833     0.094677     0.526916    -0.739869    -0.110758    -0.001474
                  0.185833     0.094677     0.247458     0.144492    -0.110758    -0.001474     0.526916    -0.739869
                  0.526916    -0.739869    -0.110758    -0.001474     0.247458     0.144492     0.185833     0.094677
                 -0.110758    -0.001474     0.526916    -0.739869     0.185833     0.094677     0.247458     0.144492

1050.000000        0.249837     0.143154     0.187434     0.093489     0.520320    -0.743541    -0.111178    -0.000085
                  0.187434     0.093489     0.249837     0.143154    -0.111178    -0.000085     0.520320    -0.743541
                  0.520320    -0.743541    -0.111178    -0.000085     0.249837     0.143154     0.187434     0.093489
                 -0.111178    -0.000085     0.520320    -0.743541     0.187434     0.093489     0.249837     0.143154

1060.000000        0.252186     0.141780     0.189007     0.092279     0.513714    -0.747157    -0.111569     0.001309
                  0.189007     0.092279     0.252186     0.141780    -0.111569     0.001309     0.513714    -0.747157
                  0.513714    -0.747157    -0.111569     0.001309     0.252186     0.141780     0.189007     0.092279
                 -0.111569     0.001309     0.513714    -0.747157     0.189007     0.092279     0.252186     0.141780

1070.000000        0.254505     0.140372     0.190553     0.091046     0.507097    -0.750717    -0.111931     0.002706
                  0.190553     0.091046     0.254505     0.140372    -0.111931     0.002706     0.507097    -0.750717
                  0.507097    -0.750717    -0.111931     0.002706     0.254505     0.140372     0.190553     0.091046
                 -0.111931     0.002706     0.507097    -0.750717     0.190553     0.091046     0.254505     0.140372

1080.000000        0.256793     0.138929     0.192072     0.089791     0.500472    -0.754222    -0.112265     0.004107
                  0.192072     0.089791     0.256793     0.138929    -0.112265     0.004107     0.500472    -0.754222
                  0.500472    -0.754222    -0.112265     0.004107     0.256793     0.138929     0.192072     0.089791
                 -0.112265     0.004107     0.500472    -0.754222     0.192072     0.089791     0.256793     0.138929

1090.000000        0.259051     0.137452     0.193564     0.088515     0.493837    -0.757671    -0.112570     0.005511
                  0.193564     0.088515     0.259051     0.137452    -0.112570     0.005511     0.493837    -0.757671
                  0.493837    -0.757671    -0.112570     0.005511     0.259051     0.137452     0.193564     0.088515
                 -0.112570     0.005511     0.493837    -0.757671     0.193564     0.088515     0.259051     0.137452

1100.000000        0.261278     0.135942     0.195028     0.087218     0.487192    -0.761065    -0.112847     0.006916
                  0.195028     0.087218     0.261278     0.135942    -0.112847     0.006916     0.487192    -0.761065
                  0.487192    -0.761065    -0.112847     0.006916     0.261278     0.135942     0.195028     0.087218
                 -0.112847     0.006916     0.487192    -0.761065     0.195028     0.087218     0.261278     0.135942

1110.000000        0.263473     0.134400     0.196465     0.085901     0.480539    -0.764405    -0.113095     0.008323
                  0.196465     0.085901     0.263473     0.134400    -0.113095     0.008323     0.480539    -0.764405
                  0.480539    -0.764405    -0.113095     0.008323     0.263473     0.134400     0.196465     0.085901
                 -0.113095     0.008323     0.480539    -0.764405     0.196465     0.085901     0.263473     0.134400

1120.000000        0.265637     0.132827     0.197875     0.084565     0.473878    -0.767691    -0.113316     0.009730
                  0.197875     0.084565     0.265637     0.132827    -0.113316     0.009730     0.473878    -0.767691
                  0.473878    -0.767691    -0.113316     0.009730     0.265637     0.132827     0.197875     0.084565
                 -0.113316     0.009730     0.473878    -0.767691     0.197875     0.084565     0.265637     0.132827

1130.000000        0.267769     0.131222     0.199256     0.083210     0.467208    -0.770924    -0.113509     0.011138
                  0.199256     0.083210     0.267769     0.131222    -0.113509     0.011138     0.467208    -0.770924
                  0.467208    -0.770924    -0.113509     0.011138     0.267769     0.131222     0.199256     0.083210
                 -0.113509     0.011138     0.467208    -0.770924     0.199256     0.083210     0.267769     0.131222

1140.000000        0.269868     0.129586     0.200610     0.081837     0.460530    -0.774103    -0.113674     0.012544
                  0.200610     0.081837     0.269868     0.129586    -0.113674     0.012544     0.460530    -0.774103
                  0.460530    -0.774103    -0.113674     0.012544     0.269868     0.129586     0.200610     0.081837
                 -0.113674     0.012544     0.460530    -0.774103     0.200610     0.081837     0.269868     0.129586

1150.000000        0.271935     0.127921     0.201935     0.080445     0.453845    -0.777229    -0.113811     0.013950
                  0.201935     0.080445     0.271935     0.127921    -0.113811     0.013950     0.453845    -0.777229
                  0.453845    -0.777229    -0.113811     0.013950     0.271935     0.127921     0.201935     0.080445
                 -0.113811     0.013950     0.453845    -0.777229     0.201935     0.080445     0.271935     0.127921

1160.000000        0.273970     0.126226     0.203233     0.079037     0.447152    -0.780303    -0.113922     0.015353
                  0.203233     0.079037     0.273970     0.126226    -0.113922     0.015353     0.447152    -0.780303
                  0.447152    -0.780303    -0.113922     0.015353     0.273970     0.126226     0.203233     0.079037
                 -0.113922     0.015353     0.447152    -0.780303     0.203233     0.079037     0.273970     0.126226

1170.000000        0.275971     0.124503     0.204503     0.077611     0.440451    -0.783324    -0.114006     0.016754
                  0.204503     0.077611     0.275971     0.124503    -0.114006     0.016754     0.440451    -0.783324
                  0.440451    -0.783324    -0.114006     0.016754     0.275971     0.124503     0.204503     0.077611
                 -0.114006     0.016754     0.440451    -0.783324     0.204503     0.077611     0.275971     0.124503

1180.000000        0.277939     0.122752     0.205745     0.076170     0.433743    -0.786294    -0.114062     0.018152
                  0.205745     0.076170     0.277939     0.122752    -0.114062     0.018152     0.433743    -0.786294
                  0.433743    -0.786294    -0.114062     0.018152     0.277939     0.122752     0.205745     0.076170
                 -0.114062     0.018152     0.433743    -0.786294     0.205745     0.076170     0.277939     0.122752

1190.000000        0.279873     0.120973     0.206958     0.074712     0.427029    -0.789212    -0.114093     0.019547
                  0.206958     0.074712     0.279873     0.120973    -0.114093     0.019547     0.427029    -0.789212
                  0.427029    -0.789212    -0.114093     0.019547     0.279873     0.120973     0.206958     0.074712
                 -0.114093     0.019547     0.427029    -0.789212     0.206958     0.074712     0.279873     0.120973

1200.000000        0.281774     0.119167     0.208144     0.073240     0.420307    -0.792079    -0.114097     0.020937
                  0.208144     0.073240     0.281774     0.119167    -0.114097     0.020937     0.420307    -0.792079
                  0.420307    -0.792079    -0.114097     0.020937     0.281774     0.119167     0.208144     0.073240
                 -0.114097     0.020937     0.420307    -0.792079     0.208144     0.073240     0.281774     0.119167

1210.000000        0.283641     0.117336     0.209301     0.071753     0.413579    -0.794895    -0.114076     0.022322
                  0.209301     0.071753     0.283641     0.117336    -0.114076     0.022322     0.413579    -0.794895
                  0.413579    -0.794895    -0.114076     0.022322     0.283641     0.117336     0.209301     0.071753
                 -0.114076     0.022322     0.413579    -0.794895     0.209301     0.071753     0.283641     0.117336

1220.000000        0.285474     0.115478     0.210430     0.070251     0.406844    -0.797661    -0.114029     0.023702
                  0.210430     0.070251     0.285474     0.115478    -0.114029     0.023702     0.406844    -0.797661
                  0.406844    -0.797661    -0.114029     0.023702     0.285474     0.115478     0.210430     0.070251
                 -0.114029     0.023702     0.406844    -0.797661     0.210430     0.070251     0.285474     0.115478

1230.000000        0.287272     0.113596     0.211530     0.068736     0.400104    -0.800376    -0.113956     0.025076
                  0.211530     0.068736     0.287272     0.113596    -0.113956     0.025076     0.400104    -0.800376
                  0.400104    -0.800376    -0.113956     0.025076     0.287272     0.113596     0.211530     0.068736
                 -0.113956     0.025076     0.400104    -0.800376     0.211530     0.068736     0.287272     0.113596

1240.000000        0.289037     0.111689     0.212603     0.067208     0.393356    -0.803042    -0.113859     0.026444
                  0.212603     0.067208     0.289037     0.111689    -0.113859     0.026444     0.393356    -0.803042
                  0.393356    -0.803042    -0.113859     0.026444     0.289037     0.111689     0.212603     0.067208
                 -0.113859     0.026444     0.393356    -0.803042     0.212603     0.067208     0.289037     0.111689

1250.000000        0.290766     0.109759     0.213647     0.065667     0.386603    -0.805658    -0.113737     0.027805
                  0.213647     0.065667     0.290766     0.109759    -0.113737     0.027805     0.386603    -0.805658
                  0.386603    -0.805658    -0.113737     0.027805     0.290766     0.109759     0.213647     0.065667
                 -0.113737     0.027805     0.386603    -0.805658     0.213647     0.065667     0.290766     0.109759

1260.000000        0.292460     0.107805     0.214663     0.064114     0.379844    -0.808224    -0.113590     0.029159
                  0.214663     0.064114     0.292460     0.107805    -0.113590     0.029159     0.379844    -0.808224
                  0.379844    -0.808224    -0.113590     0.029159     0.292460     0.107805     0.214663     0.064114
                 -0.113590     0.029159     0.379844    -0.808224     0.214663     0.064114     0.292460     0.107805

1270.000000        0.294120     0.105828     0.215651     0.062548     0.373080    -0.810742    -0.113420     0.030504
                  0.215651     0.062548     0.294120     0.105828    -0.113420     0.030504     0.373080    -0.810742
                  0.373080    -0.810742    -0.113420     0.030504     0.294120     0.105828     0.215651     0.062548
                 -0.113420     0.030504     0.373080    -0.810742     0.215651     0.062548     0.294120     0.105828

1280.000000        0.295744     0.103829     0.216611     0.060972     0.366309    -0.813211    -0.113226     0.031841
                  0.216611     0.060972     0.295744     0.103829    -0.113226     0.031841     0.366309    -0.813211
                  0.366309    -0.813211    -0.113226     0.031841     0.295744     0.103829     0.216611     0.060972
                 -0.113226     0.031841     0.366309    -0.813211     0.216611     0.060972     0.295744     0.103829

1290.000000        0.297333     0.101809     0.217542     0.059385     0.359533    -0.815631    -0.113009     0.033169
                  0.217542     0.059385     0.297333     0.101809    -0.113009     0.033169     0.359533    -0.815631
                  0.359533    -0.815631    -0.113009     0.033169     0.297333     0.101809     0.217542     0.059385
                 -0.113009     0.033169     0.359533    -0.815631     0.217542     0.059385     0.297333     0.101809

1300.000000        0.298887     0.099768     0.218445     0.057787     0.352752    -0.818003    -0.112768     0.034488
                  0.218445     0.057787     0.298887     0.099768    -0.112768     0.034488     0.352752    -0.818003
                  0.352752    -0.818003    -0.112768     0.034488     0.298887     0.099768     0.218445     0.057787
                 -0.112768     0.034488     0.352752    -0.818003     0.218445     0.057787     0.298887     0.099768

1310.000000        0.300405     0.097706     0.219320     0.056179     0.345965    -0.820327    -0.112506     0.035798
                  0.219320     0.056179     0.300405     0.097706    -0.112506     0.035798     0.345965    -0.820327
                  0.345965    -0.820327    -0.112506     0.035798     0.300405     0.097706     0.219320     0.056179
                 -0.112506     0.035798     0.345965    -0.820327     0.219320     0.056179     0.300405     0.097706

1320.000000        0.301887     0.095625     0.220167     0.054562     0.339173    -0.822603    -0.112221     0.037097
                  0.220167     0.054562     0.301887     0.095625    -0.112221     0.037097     0.339173    -0.822603
                  0.339173    -0.822603    -0.112221     0.037097     0.301887     0.095625     0.220167     0.054562
                 -0.112221     0.037097     0.339173    -0.822603     0.220167     0.054562     0.301887     0.095625

1330.000000        0.303333     0.093524     0.220986     0.052935     0.332376    -0.824832    -0.111914     0.038385
                  0.220986     0.052935     0.303333     0.093524    -0.111914     0.038385     0.332376    -0.824832
                  0.332376    -0.824832    -0.111914     0.038385     0.303333     0.093524     0.220986     0.052935
                 -0.111914     0.038385     0.332376    -0.824832     0.220986     0.052935     0.303333     0.093524

1340.000000        0.304744     0.091404     0.221776     0.051300     0.325574    -0.827013    -0.111586     0.039662
                  0.221776     0.051300     0.304744     0.091404    -0.111586     0.039662     0.325574    -0.827013
                  0.325574    -0.827013    -0.111586     0.039662     0.304744     0.091404     0.221776     0.051300
                 -0.111586     0.039662     0.325574    -0.827013     0.221776     0.051300     0.304744     0.091404

1350.000000        0.306118     0.089266     0.222539     0.049656     0.318767    -0.829147    -0.111237     0.040928
                  0.222539     0.049656     0.306118     0.089266    -0.111237     0.040928     0.318767    -0.829147
                  0.318767    -0.829147    -0.111237     0.040928     0.306118     0.089266     0.222539     0.049656
                 -0.111237     0.040928     0.318767    -0.829147     0.222539     0.049656     0.306118     0.089266

1360.000000        0.307456     0.087110     0.223274     0.048004     0.311955    -0.831235    -0.110867     0.042182
                  0.223274     0.048004     0.307456     0.087110    -0.110867     0.042182     0.311955    -0.831235
                  0.311955    -0.831235    -0.110867     0.042182     0.307456     0.087110     0.223274     0.048004
                 -0.110867     0.042182     0.311955    -0.831235     0.223274     0.048004     0.307456     0.087110

1370.000000        0.308758     0.084937     0.223980     0.046345     0.305138    -0.833275    -0.110477     0.043424
                  0.223980     0.046345     0.308758     0.084937    -0.110477     0.043424     0.305138    -0.833275
                  0.305138    -0.833275    -0.110477     0.043424     0.308758     0.084937     0.223980     0.046345
                 -0.110477     0.043424     0.305138    -0.833275     0.223980     0.046345     0.308758     0.084937

1380.000000        0.310023     0.082747     0.224659     0.044679     0.298316    -0.835270    -0.110067     0.044653
                  0.224659     0.044679     0.310023     0.082747    -0.110067     0.044653     0.298316    -0.835270
                  0.298316    -0.835270    -0.110067     0.044653     0.310023     0.082747     0.224659     0.044679
                 -0.110067     0.044653     0.298316    -0.835270     0.224659     0.044679     0.310023     0.082747

