! www.PolarInstruments.com
! File Export V10.11 [9.03]
! For hxji@mail.xidian.edu.cn;QQ=47399897
! File : D:\SJTU\Bachelor\thesis\Multi-line\transmission-line-params-extractor\data\CPL_1in_20200202.s4p
! Polar  PCB Transmission Line Field Solver  v11.04.00
# MHz S RI R 50.00
!
! Line Length = 0.025m ( 1.00 inch )
!
!
!	           PORT NUMBERING (Classic style)
!	    PORT#                               PORT#
!	    Z1 = Z2 = 50.00                     Z3 = Z4 = 50.00
!	           --------------------------
!	          |                          |
!	      1 --|                          |-- 3
!	          |                          |
!	      2 --|                          |-- 4
!	          |                          |
!	           --------------------------
!
!
!
! FREQ MHz                S11                       S12                       S13                       S14
!                         S21                       S22                       S23                       S24
!                         S31                       S32                       S33                       S34
!                         S41                       S42                       S43                       S44
!                  REAL         IMAG         REAL         IMAG         REAL         IMAG         REAL         IMAG
100.000000        0.007138     0.038551     0.003956     0.028118     0.989280    -0.099590    -0.002772    -0.015428
                  0.003956     0.028118     0.007138     0.038551    -0.002772    -0.015428     0.989280    -0.099590
                  0.989280    -0.099590    -0.002772    -0.015428     0.007138     0.038551     0.003956     0.028118
                 -0.002772    -0.015428     0.989280    -0.099590     0.003956     0.028118     0.007138     0.038551

300.000000        0.039633     0.102805     0.029503     0.076362     0.937934    -0.284645    -0.021385    -0.039366
                  0.029503     0.076362     0.039633     0.102805    -0.021385    -0.039366     0.937934    -0.284645
                  0.937934    -0.284645    -0.021385    -0.039366     0.039633     0.102805     0.029503     0.076362
                 -0.021385    -0.039366     0.937934    -0.284645     0.029503     0.076362     0.039633     0.102805

500.000000        0.091994     0.145864     0.070998     0.106867     0.851593    -0.445878    -0.050436    -0.048183
                  0.070998     0.106867     0.091994     0.145864    -0.050436    -0.048183     0.851593    -0.445878
                  0.851593    -0.445878    -0.050436    -0.048183     0.091994     0.145864     0.070998     0.106867
                 -0.050436    -0.048183     0.851593    -0.445878     0.070998     0.106867     0.091994     0.145864

700.000000        0.152616     0.164003     0.117675     0.116729     0.741595    -0.578273    -0.079821    -0.040419
                  0.117675     0.116729     0.152616     0.164003    -0.079821    -0.040419     0.741595    -0.578273
                  0.741595    -0.578273    -0.079821    -0.040419     0.152616     0.164003     0.117675     0.116729
                 -0.079821    -0.040419     0.741595    -0.578273     0.117675     0.116729     0.152616     0.164003

900.000000        0.211303     0.159121     0.160732     0.108519     0.617943    -0.682292    -0.101830    -0.020002
                  0.160732     0.108519     0.211303     0.159121    -0.101830    -0.020002     0.617943    -0.682292
                  0.617943    -0.682292    -0.101830    -0.020002     0.211303     0.159121     0.160732     0.108519
                 -0.101830    -0.020002     0.617943    -0.682292     0.160732     0.108519     0.211303     0.159121

1100.000000        0.261305     0.135957     0.195016     0.087205     0.487177    -0.761067    -0.112842     0.006923
                  0.195016     0.087205     0.261305     0.135957    -0.112842     0.006923     0.487177    -0.761067
                  0.487177    -0.761067    -0.112842     0.006923     0.261305     0.135957     0.195016     0.087205
                 -0.112842     0.006923     0.487177    -0.761067     0.195016     0.087205     0.261305     0.135957

1300.000000        0.298918     0.099779     0.218428     0.057775     0.352735    -0.818002    -0.112761     0.034495
                  0.218428     0.057775     0.298918     0.099779    -0.112761     0.034495     0.352735    -0.818002
                  0.352735    -0.818002    -0.112761     0.034495     0.298918     0.099779     0.218428     0.057775
                 -0.112761     0.034495     0.352735    -0.818002     0.218428     0.057775     0.298918     0.099779

1500.000000        0.322365     0.055366     0.230628     0.024248     0.216081    -0.855632    -0.103753     0.058310
                  0.230628     0.024248     0.322365     0.055366    -0.103753     0.058310     0.216081    -0.855632
                  0.216081    -0.855632    -0.103753     0.058310     0.322365     0.055366     0.230628     0.024248
                 -0.103753     0.058310     0.216081    -0.855632     0.230628     0.024248     0.322365     0.055366

1700.000000        0.330874     0.006897     0.231964    -0.010361     0.077675    -0.875317    -0.089159     0.075728
                  0.231964    -0.010361     0.330874     0.006897    -0.089159     0.075728     0.077675    -0.875317
                  0.077675    -0.875317    -0.089159     0.075728     0.330874     0.006897     0.231964    -0.010361
                 -0.089159     0.075728     0.077675    -0.875317     0.231964    -0.010361     0.330874     0.006897

1900.000000        0.324173    -0.041761     0.222867    -0.043629    -0.062367    -0.877255    -0.072760     0.085849
                  0.222867    -0.043629     0.324173    -0.041761    -0.072760     0.085849    -0.062367    -0.877255
                 -0.062367    -0.877255    -0.072760     0.085849     0.324173    -0.041761     0.222867    -0.043629
                 -0.072760     0.085849    -0.062367    -0.877255     0.222867    -0.043629     0.324173    -0.041761

2100.000000        0.302390    -0.086659     0.203679    -0.073192    -0.203805    -0.860527    -0.058240     0.089448
                  0.203679    -0.073192     0.302390    -0.086659    -0.058240     0.089448    -0.203805    -0.860527
                 -0.203805    -0.860527    -0.058240     0.089448     0.302390    -0.086659     0.203679    -0.073192
                 -0.058240     0.089448    -0.203805    -0.860527     0.203679    -0.073192     0.302390    -0.086659

2300.000000        0.266300    -0.123413     0.174886    -0.096231    -0.345795    -0.823115    -0.048653     0.088954
                  0.174886    -0.096231     0.266300    -0.123413    -0.048653     0.088954    -0.345795    -0.823115
                 -0.345795    -0.823115    -0.048653     0.088954     0.266300    -0.123413     0.174886    -0.096231
                 -0.048653     0.088954    -0.345795    -0.823115     0.174886    -0.096231     0.266300    -0.123413

2500.000000        0.217939    -0.147068     0.137764    -0.109188    -0.486194    -0.762016    -0.045677     0.088336
                  0.137764    -0.109188     0.217939    -0.147068    -0.045677     0.088336    -0.486194    -0.762016
                 -0.486194    -0.762016    -0.045677     0.088336     0.217939    -0.147068     0.137764    -0.109188
                 -0.045677     0.088336    -0.486194    -0.762016     0.137764    -0.109188     0.217939    -0.147068

2700.000000        0.161526    -0.152478     0.095369    -0.108004    -0.620638    -0.673780    -0.048629     0.092570
                  0.095369    -0.108004     0.161526    -0.152478    -0.048629     0.092570    -0.620638    -0.673780
                 -0.620638    -0.673780    -0.048629     0.092570     0.161526    -0.152478     0.095369    -0.108004
                 -0.048629     0.092570    -0.620638    -0.673780     0.095369    -0.108004     0.161526    -0.152478

2900.000000        0.104320    -0.135626     0.053514    -0.089325    -0.741690    -0.555926    -0.053534     0.106236
                  0.053514    -0.089325     0.104320    -0.135626    -0.053534     0.106236    -0.741690    -0.555926
                 -0.741690    -0.555926    -0.053534     0.106236     0.104320    -0.135626     0.053514    -0.089325
                 -0.053534     0.106236    -0.741690    -0.555926     0.053514    -0.089325     0.104320    -0.135626

3100.000000        0.056433    -0.095996     0.020724    -0.052810    -0.839043    -0.409369    -0.053228     0.131082
                  0.020724    -0.052810     0.056433    -0.095996    -0.053228     0.131082    -0.839043    -0.409369
                 -0.839043    -0.409369    -0.053228     0.131082     0.056433    -0.095996     0.020724    -0.052810
                 -0.053228     0.131082    -0.839043    -0.409369     0.020724    -0.052810     0.056433    -0.095996

3300.000000        0.028415    -0.038931     0.005988    -0.003458    -0.901931    -0.240815    -0.039663     0.163604
                  0.005988    -0.003458     0.028415    -0.038931    -0.039663     0.163604    -0.901931    -0.240815
                 -0.901931    -0.240815    -0.039663     0.163604     0.028415    -0.038931     0.005988    -0.003458
                 -0.039663     0.163604    -0.901931    -0.240815     0.005988    -0.003458     0.028415    -0.038931

3500.000000        0.026878     0.024414     0.014546     0.048404    -0.923510    -0.062739    -0.008161     0.194997
                  0.014546     0.048404     0.026878     0.024414    -0.008161     0.194997    -0.923510    -0.062739
                 -0.923510    -0.062739    -0.008161     0.194997     0.026878     0.024414     0.014546     0.048404
                 -0.008161     0.194997    -0.923510    -0.062739     0.014546     0.048404     0.026878     0.024414

3700.000000        0.051092     0.080892     0.044637     0.090854    -0.904248     0.110403     0.039299     0.214856
                  0.044637     0.090854     0.051092     0.080892     0.039299     0.214856    -0.904248     0.110403
                 -0.904248     0.110403     0.039299     0.214856     0.051092     0.080892     0.044637     0.090854
                  0.039299     0.214856    -0.904248     0.110403     0.044637     0.090854     0.051092     0.080892

3900.000000        0.093681     0.120616     0.088304     0.115501    -0.851216     0.267403     0.094873     0.216261
                  0.088304     0.115501     0.093681     0.120616     0.094873     0.216261    -0.851216     0.267403
                 -0.851216     0.267403     0.094873     0.216261     0.093681     0.120616     0.088304     0.115501
                  0.094873     0.216261    -0.851216     0.267403     0.088304     0.115501     0.093681     0.120616

4100.000000        0.144672     0.139638     0.135514     0.119992    -0.774026     0.402937     0.148970     0.198252
                  0.135514     0.119992     0.144672     0.139638     0.148970     0.198252    -0.774026     0.402937
                 -0.774026     0.402937     0.148970     0.198252     0.144672     0.139638     0.135514     0.119992
                  0.148970     0.198252    -0.774026     0.402937     0.135514     0.119992     0.144672     0.139638

4300.000000        0.195341     0.139008     0.177998     0.106903    -0.680967     0.516571     0.194104     0.164673
                  0.177998     0.106903     0.195341     0.139008     0.194104     0.164673    -0.680967     0.516571
                 -0.680967     0.516571     0.194104     0.164673     0.195341     0.139008     0.177998     0.106903
                  0.194104     0.164673    -0.680967     0.516571     0.177998     0.106903     0.195341     0.139008

4500.000000        0.239749     0.122300     0.210740     0.081092    -0.577450     0.610216     0.226411     0.121461
                  0.210740     0.081092     0.239749     0.122300     0.226411     0.121461    -0.577450     0.610216
                 -0.577450     0.610216     0.226411     0.121461     0.239749     0.122300     0.210740     0.081092
                  0.226411     0.121461    -0.577450     0.610216     0.210740     0.081092     0.239749     0.122300

4700.000000        0.274447     0.093663     0.231567     0.047618    -0.466305     0.686074     0.245261     0.074452
                  0.231567     0.047618     0.274447     0.093663     0.245261     0.074452    -0.466305     0.686074
                 -0.466305     0.686074     0.245261     0.074452     0.274447     0.093663     0.231567     0.047618
                  0.245261     0.074452    -0.466305     0.686074     0.231567     0.047618     0.274447     0.093663

4900.000000        0.297556     0.056954     0.240092     0.010786    -0.348718     0.745619     0.252214     0.028265
                  0.240092     0.010786     0.297556     0.056954     0.252214     0.028265    -0.348718     0.745619
                 -0.348718     0.745619     0.252214     0.028265     0.297556     0.056954     0.240092     0.010786
                  0.252214     0.028265    -0.348718     0.745619     0.240092     0.010786     0.297556     0.056954

5100.000000        0.308007     0.015648     0.236782    -0.025985    -0.225074     0.789297     0.250051    -0.014065
                  0.236782    -0.025985     0.308007     0.015648     0.250051    -0.014065    -0.225074     0.789297
                 -0.225074     0.789297     0.250051    -0.014065     0.308007     0.015648     0.236782    -0.025985
                  0.250051    -0.014065    -0.225074     0.789297     0.236782    -0.025985     0.308007     0.015648

5300.000000        0.305141    -0.026891     0.222404    -0.059866    -0.095547     0.816512     0.242060    -0.051133
                  0.222404    -0.059866     0.305141    -0.026891     0.242060    -0.051133    -0.095547     0.816512
                 -0.095547     0.816512     0.242060    -0.051133     0.305141    -0.026891     0.222404    -0.059866
                  0.242060    -0.051133    -0.095547     0.816512     0.222404    -0.059866     0.305141    -0.026891

5500.000000        0.288680    -0.067054     0.197854    -0.088203     0.039452     0.825663     0.231490    -0.083125
                  0.197854    -0.088203     0.288680    -0.067054     0.231490    -0.083125     0.039452     0.825663
                  0.039452     0.825663     0.231490    -0.083125     0.288680    -0.067054     0.197854    -0.088203
                  0.231490    -0.083125     0.039452     0.825663     0.197854    -0.088203     0.288680    -0.067054

5700.000000        0.259030    -0.100692     0.164341    -0.108109     0.178792     0.814180     0.220977    -0.111772
                  0.164341    -0.108109     0.259030    -0.100692     0.220977    -0.111772     0.178792     0.814180
                  0.178792     0.814180     0.220977    -0.111772     0.259030    -0.100692     0.164341    -0.108109
                  0.220977    -0.111772     0.178792     0.814180     0.164341    -0.108109     0.259030    -0.100692

5900.000000        0.217911    -0.123072     0.123948    -0.116296     0.319977     0.778703     0.211830    -0.140154
                  0.123948    -0.116296     0.217911    -0.123072     0.211830    -0.140154     0.319977     0.778703
                  0.319977     0.778703     0.211830    -0.140154     0.217911    -0.123072     0.123948    -0.116296
                  0.211830    -0.140154     0.319977     0.778703     0.123948    -0.116296     0.217911    -0.123072

6100.000000        0.169199    -0.129360     0.080440    -0.109407     0.458320     0.715691     0.203152    -0.172078
                  0.080440    -0.109407     0.169199    -0.129360     0.203152    -0.172078     0.458320     0.715691
                  0.458320     0.715691     0.203152    -0.172078     0.169199    -0.129360     0.080440    -0.109407
                  0.203152    -0.172078     0.458320     0.715691     0.080440    -0.109407     0.169199    -0.129360

6300.000000        0.119580    -0.115961     0.039935    -0.085208     0.586334     0.622819     0.191172    -0.210676
                  0.039935    -0.085208     0.119580    -0.115961     0.191172    -0.210676     0.586334     0.622819
                  0.586334     0.622819     0.191172    -0.210676     0.119580    -0.115961     0.039935    -0.085208
                  0.191172    -0.210676     0.586334     0.622819     0.039935    -0.085208     0.119580    -0.115961

6500.000000        0.078127    -0.082652     0.010541    -0.044588     0.694174     0.501145     0.169635    -0.256243
                  0.010541    -0.044588     0.078127    -0.082652     0.169635    -0.256243     0.694174     0.501145
                  0.694174     0.501145     0.169635    -0.256243     0.078127    -0.082652     0.010541    -0.044588
                  0.169635    -0.256243     0.694174     0.501145     0.010541    -0.044588     0.078127    -0.082652

6700.000000        0.053941    -0.034430     0.000089     0.006703     0.772015     0.356958     0.132102    -0.304387
                  0.000089     0.006703     0.053941    -0.034430     0.132102    -0.304387     0.772015     0.356958
                  0.772015     0.356958     0.132102    -0.304387     0.053941    -0.034430     0.000089     0.006703
                  0.132102    -0.304387     0.772015     0.356958     0.000089     0.006703     0.053941    -0.034430

6900.000000        0.052386     0.018903     0.012498     0.058558     0.813808     0.201368     0.075628    -0.346441
                  0.012498     0.058558     0.052386     0.018903     0.075628    -0.346441     0.813808     0.201368
                  0.813808     0.201368     0.075628    -0.346441     0.052386     0.018903     0.012498     0.058558
                  0.075628    -0.346441     0.813808     0.201368     0.012498     0.058558     0.052386     0.018903

7100.000000        0.072501     0.066209     0.045341     0.100010     0.819856     0.046837     0.003223    -0.372900
                  0.045341     0.100010     0.072501     0.066209     0.003223    -0.372900     0.819856     0.046837
                  0.819856     0.046837     0.003223    -0.372900     0.072501     0.066209     0.045341     0.100010
                  0.003223    -0.372900     0.819856     0.046837     0.045341     0.100010     0.072501     0.066209

7300.000000        0.107885     0.099336     0.090877     0.123541     0.795908    -0.097120    -0.077149    -0.377676
                  0.090877     0.123541     0.107885     0.099336    -0.077149    -0.377676     0.795908    -0.097120
                  0.795908    -0.097120    -0.077149    -0.377676     0.107885     0.099336     0.090877     0.123541
                 -0.077149    -0.377676     0.795908    -0.097120     0.090877     0.123541     0.107885     0.099336

7500.000000        0.150137     0.115146     0.139647     0.127047     0.749687    -0.225943    -0.156159    -0.360013
                  0.139647     0.127047     0.150137     0.115146    -0.156159    -0.360013     0.749687    -0.225943
                  0.749687    -0.225943    -0.156159    -0.360013     0.150137     0.115146     0.139647     0.127047
                 -0.156159    -0.360013     0.749687    -0.225943     0.139647     0.127047     0.150137     0.115146

7700.000000        0.192004     0.114633     0.183727     0.112842     0.687718    -0.339090    -0.226359    -0.323438
                  0.183727     0.112842     0.192004     0.114633    -0.226359    -0.323438     0.687718    -0.339090
                  0.687718    -0.339090    -0.226359    -0.323438     0.192004     0.114633     0.183727     0.112842
