! www.PolarInstruments.com
! File Export V10.11 [9.03]
! For hxji@mail.xidian.edu.cn;QQ=47399897
! File : D:\SJTU\Bachelor\thesis\Multi-line\transmission-line-params-extractor\data\MSL_1in_20200319.s2p
! Polar  PCB Transmission Line Field Solver  v11.04.00
# MHz S RI R 50.00
!
! Line Length = 0.025m ( 1.00 inch )
!
!
!    PORT#                               PORT#
!    Z1 = 50.00                           Z2 = 50.00
!           --------------------------
!          |                          |
!      1 --|                          |-- 2
!          |                          |
!           --------------------------
!
! PORT 1: INPUT NET 1
! PORT 2: OUTPUT NET 1
!
!
!
! FREQ                  S11                         S21                       S12                         S22
!                  REAL         IMAG         REAL         IMAG         REAL         IMAG         REAL         IMAG
100.000000        0.006819     0.040104     0.989818    -0.100229     0.989818    -0.100229     0.006819     0.040104
200.000000        0.019280     0.076431     0.970300    -0.196404     0.970300    -0.196404     0.019280     0.076431
300.000000        0.037991     0.109166     0.940998    -0.288650     0.940998    -0.288650     0.037991     0.109166
400.000000        0.062173     0.137293     0.902610    -0.375872     0.902610    -0.375872     0.062173     0.137293
500.000000        0.090766     0.159956     0.856103    -0.457115     0.856103    -0.457115     0.090766     0.159956
600.000000        0.122561     0.176558     0.802590    -0.531662     0.802590    -0.531662     0.122561     0.176558
700.000000        0.156290     0.186779     0.743232    -0.599053     0.743232    -0.599053     0.156290     0.186779
800.000000        0.190704     0.190566     0.679160    -0.659071     0.679160    -0.659071     0.190704     0.190566
900.000000        0.224629     0.188100     0.611418    -0.711703     0.611418    -0.711703     0.224629     0.188100
1000.000000        0.257008     0.179757     0.540925    -0.757094     0.540925    -0.757094     0.257008     0.179757
1100.000000        0.286917     0.166063     0.468457    -0.795498     0.468457    -0.795498     0.286917     0.166063
1200.000000        0.313583     0.147651     0.394643    -0.827235     0.394643    -0.827235     0.313583     0.147651
1300.000000        0.336376     0.125229     0.319967    -0.852640     0.319967    -0.852640     0.336376     0.125229
1400.000000        0.354800     0.099555     0.244796    -0.872044     0.244796    -0.872044     0.354800     0.099555
1500.000000        0.368493     0.071411     0.169386    -0.885730     0.169386    -0.885730     0.368493     0.071411
1600.000000        0.377204     0.041588     0.093912    -0.893925     0.093912    -0.893925     0.377204     0.041588
1700.000000        0.380791     0.010886     0.018497    -0.896781     0.018497    -0.896781     0.380791     0.010886
1800.000000        0.379210    -0.019902    -0.056767    -0.894370    -0.056767    -0.894370     0.379210    -0.019902
1900.000000        0.372516    -0.049983    -0.131791    -0.886684    -0.131791    -0.886684     0.372516    -0.049983
2000.000000        0.360860    -0.078576    -0.206465    -0.873631    -0.206465    -0.873631     0.360860    -0.078576
2100.000000        0.344493    -0.104909    -0.280629    -0.855049    -0.280629    -0.855049     0.344493    -0.104909
2200.000000        0.323775    -0.128230    -0.354053    -0.830718    -0.354053    -0.830718     0.323775    -0.128230
2300.000000        0.299185    -0.147819    -0.426413    -0.800376    -0.426413    -0.800376     0.299185    -0.147819
2400.000000        0.271322    -0.163006    -0.497272    -0.763747    -0.497272    -0.763747     0.271322    -0.163006
2500.000000        0.240919    -0.173192    -0.566067    -0.720568    -0.566067    -0.720568     0.240919    -0.173192
2600.000000        0.208837    -0.177884    -0.632099    -0.670636    -0.632099    -0.670636     0.208837    -0.177884
2700.000000        0.176061    -0.176728    -0.694542    -0.613839    -0.694542    -0.613839     0.176061    -0.176728
2800.000000        0.143678    -0.169545    -0.752453    -0.550210    -0.752453    -0.550210     0.143678    -0.169545
2900.000000        0.112847    -0.156373    -0.804806    -0.479962    -0.804806    -0.479962     0.112847    -0.156373
3000.000000        0.084746    -0.137494    -0.850535    -0.403530    -0.850535    -0.403530     0.084746    -0.137494
3100.000000        0.060518    -0.113450    -0.888599    -0.321590    -0.888599    -0.321590     0.060518    -0.113450
3200.000000        0.041196    -0.085047    -0.918044    -0.235062    -0.918044    -0.235062     0.041196    -0.085047
3300.000000        0.027635    -0.053328    -0.938079    -0.145094    -0.938079    -0.145094     0.027635    -0.053328
3400.000000        0.020444    -0.019526    -0.948138    -0.053015    -0.948138    -0.053015     0.020444    -0.019526
3500.000000        0.019939     0.015000    -0.947932     0.039726    -0.947932     0.039726     0.019939     0.015000
3600.000000        0.026116     0.048855    -0.937473     0.131643    -0.937473     0.131643     0.026116     0.048855
3700.000000        0.038647     0.080684    -0.917076     0.221289    -0.917076     0.221289     0.038647     0.080684
3800.000000        0.056918     0.109266    -0.887329     0.307346    -0.887329     0.307346     0.056918     0.109266
3900.000000        0.080071     0.133570    -0.849043     0.388676    -0.849043     0.388676     0.080071     0.133570
4000.000000        0.107073     0.152808    -0.803187     0.464371    -0.803187     0.464371     0.107073     0.152808
4100.000000        0.136790     0.166453    -0.750819     0.533769    -0.750819     0.533769     0.136790     0.166453
4200.000000        0.168055     0.174239    -0.693013     0.596448    -0.693013     0.596448     0.168055     0.174239
4300.000000        0.199725     0.176143    -0.630806     0.652204    -0.630806     0.652204     0.199725     0.176143
4400.000000        0.230735     0.172356    -0.565148     0.701014    -0.565148     0.701014     0.230735     0.172356
4500.000000        0.260124     0.163239    -0.496877     0.742996    -0.496877     0.742996     0.260124     0.163239
4600.000000        0.287056     0.149293    -0.426704     0.778362    -0.426704     0.778362     0.287056     0.149293
4700.000000        0.310829     0.131115    -0.355206     0.807379    -0.355206     0.807379     0.310829     0.131115
4800.000000        0.330874     0.109374    -0.282837     0.830330    -0.282837     0.830330     0.330874     0.109374
4900.000000        0.346748     0.084782    -0.209945     0.847487    -0.209945     0.847487     0.346748     0.084782
5000.000000        0.358126     0.058079    -0.136784     0.859082    -0.136784     0.859082     0.358126     0.058079
5100.000000        0.364795     0.030017    -0.063543     0.865298    -0.063543     0.865298     0.364795     0.030017
5200.000000        0.366641     0.001352     0.009635     0.866248     0.009635     0.866248     0.366641     0.001352
5300.000000        0.363650    -0.027161     0.082628     0.861977     0.082628     0.861977     0.363650    -0.027161
5400.000000        0.355903    -0.054770     0.155308     0.852457     0.155308     0.852457     0.355903    -0.054770
5500.000000        0.343578    -0.080737     0.227523     0.837592     0.227523     0.837592     0.343578    -0.080737
5600.000000        0.326953    -0.104339     0.299067     0.817228     0.299067     0.817228     0.326953    -0.104339
5700.000000        0.306413    -0.124877     0.369667     0.791165     0.369667     0.791165     0.306413    -0.124877
5800.000000        0.282456    -0.141696     0.438956     0.759177     0.438956     0.759177     0.282456    -0.141696
5900.000000        0.255695    -0.154195     0.506464     0.721040     0.506464     0.721040     0.255695    -0.154195
6000.000000        0.226865    -0.161860     0.571602     0.676560     0.571602     0.676560     0.226865    -0.161860
6100.000000        0.196816    -0.164285     0.633667     0.625608     0.633667     0.625608     0.196816    -0.164285
6200.000000        0.166500    -0.161211     0.691846     0.568162     0.691846     0.568162     0.166500    -0.161211
6300.000000        0.136950    -0.152556     0.745234     0.504343     0.745234     0.504343     0.136950    -0.152556
6400.000000        0.109241    -0.138444     0.792873     0.434450     0.792873     0.434450     0.109241    -0.138444
6500.000000        0.084447    -0.119230     0.833790     0.358989     0.833790     0.358989     0.084447    -0.119230
6600.000000        0.063580    -0.095504     0.867062     0.278686     0.867062     0.278686     0.063580    -0.095504
6700.000000        0.047529    -0.068089     0.891869     0.194480     0.891869     0.194480     0.047529    -0.068089
6800.000000        0.036997    -0.038003     0.907561     0.107498     0.907561     0.107498     0.036997    -0.038003
6900.000000        0.032450    -0.006418     0.913708     0.019014     0.913708     0.019014     0.032450    -0.006418
7000.000000        0.034079     0.025409     0.910139    -0.069620     0.910139    -0.069620     0.034079     0.025409
7100.000000        0.041785     0.056209     0.896956    -0.157036     0.896956    -0.157036     0.041785     0.056209
7200.000000        0.055187     0.084779     0.874525    -0.241931     0.874525    -0.241931     0.055187     0.084779
7300.000000        0.073653     0.110049     0.843446    -0.323128     0.843446    -0.323128     0.073653     0.110049
7400.000000        0.096350     0.131136     0.804506    -0.399628     0.804506    -0.399628     0.096350     0.131136
7500.000000        0.122304     0.147382     0.758618    -0.470642     0.758618    -0.470642     0.122304     0.147382
7600.000000        0.150461     0.158363     0.706760    -0.535600     0.706760    -0.535600     0.150461     0.158363
7700.000000        0.179751     0.163892     0.649914    -0.594145     0.649914    -0.594145     0.179751     0.163892
7800.000000        0.209136     0.163995     0.589021    -0.646107     0.589021    -0.646107     0.209136     0.163995
7900.000000        0.237651     0.158884     0.524941    -0.691475     0.524941    -0.691475     0.237651     0.158884
8000.000000        0.264429     0.148925     0.458431    -0.730355     0.458431    -0.730355     0.264429     0.148925
8100.000000        0.288719     0.134605     0.390133    -0.762933     0.390133    -0.762933     0.288719     0.134605
8200.000000        0.309893     0.116498     0.320573    -0.789436     0.320573    -0.789436     0.309893     0.116498
8300.000000        0.327442     0.095241     0.250172    -0.810106     0.250172    -0.810106     0.327442     0.095241
8400.000000        0.340976     0.071511     0.179254    -0.825168     0.179254    -0.825168     0.340976     0.071511
8500.000000        0.350213     0.046011     0.108070    -0.834813     0.108070    -0.834813     0.350213     0.046011
8600.000000        0.354975     0.019455     0.036812    -0.839182     0.036812    -0.839182     0.354975     0.019455
8700.000000        0.355184    -0.007437    -0.034358    -0.838359    -0.034358    -0.838359     0.355184    -0.007437
8800.000000        0.350855    -0.033947    -0.105293    -0.832362    -0.105293    -0.832362     0.350855    -0.033947
8900.000000        0.342096    -0.059364    -0.175835    -0.821149    -0.175835    -0.821149     0.342096    -0.059364
9000.000000        0.329113    -0.082991    -0.245794    -0.804621    -0.245794    -0.804621     0.329113    -0.082991
9100.000000        0.312209    -0.104151    -0.314926    -0.782632    -0.314926    -0.782632     0.312209    -0.104151
9200.000000        0.291791    -0.122201    -0.382919    -0.755002    -0.382919    -0.755002     0.291791    -0.122201
9300.000000        0.268374    -0.136542    -0.449371    -0.721542    -0.449371    -0.721542     0.268374    -0.136542
9400.000000        0.242583    -0.146646    -0.513784    -0.682075    -0.513784    -0.682075     0.242583    -0.146646
9500.000000        0.215151    -0.152071    -0.575553    -0.636468    -0.575553    -0.636468     0.215151    -0.152071
9600.000000        0.186914    -0.152498    -0.633973    -0.584662    -0.633973    -0.584662     0.186914    -0.152498
9700.000000        0.158790    -0.147751    -0.688248    -0.526713    -0.688248    -0.526713     0.158790    -0.147751
9800.000000        0.131757    -0.137831    -0.737514    -0.462821    -0.737514    -0.462821     0.131757    -0.137831
9900.000000        0.106813    -0.122941    -0.780876    -0.393356    -0.780876    -0.393356     0.106813    -0.122941
10000.000000        0.084931    -0.103494    -0.817451    -0.318886    -0.817451    -0.318886     0.084931    -0.103494
10100.000000        0.067007    -0.080118    -0.846419    -0.240172    -0.846419    -0.240172     0.067007    -0.080118
10200.000000        0.053799    -0.053642    -0.867081    -0.158162    -0.867081    -0.158162     0.053799    -0.053642
10300.000000        0.045880    -0.025059    -0.878911    -0.073963    -0.878911    -0.073963     0.045880    -0.025059
10400.000000        0.043591     0.004520    -0.881596     0.011210    -0.881596     0.011210     0.043591     0.004520
10500.000000        0.047019     0.033929    -0.875062     0.096087    -0.875062     0.096087     0.047019     0.033929
10600.000000        0.055987     0.062016    -0.859485     0.179413    -0.859485     0.179413     0.055987     0.062016
10700.000000        0.070069     0.087707    -0.835272     0.260005    -0.835272     0.260005     0.070069     0.087707
10800.000000        0.088625     0.110065    -0.803031     0.336811    -0.803031     0.336811     0.088625     0.110065
10900.000000        0.110843     0.128334    -0.763525     0.408949    -0.763525     0.408949     0.110843     0.128334
11000.000000        0.135802     0.141966    -0.717617     0.475731    -0.717617     0.475731     0.135802     0.141966
11100.000000        0.162519     0.150629    -0.666216     0.536665    -0.666216     0.536665     0.162519     0.150629
11200.000000        0.190009     0.154200    -0.610227     0.591448    -0.610227     0.591448     0.190009     0.154200
11300.000000        0.217323     0.152750    -0.550508     0.639942    -0.550508     0.639942     0.217323     0.152750
11400.000000        0.243583     0.146511    -0.487841     0.682145    -0.487841     0.682145     0.243583     0.146511
11500.000000        0.268007     0.135853    -0.422916     0.718152    -0.422916     0.718152     0.268007     0.135853
11600.000000        0.289916     0.121253    -0.356316     0.748128    -0.356316     0.748128     0.289916     0.121253
11700.000000        0.308749     0.103264    -0.288526     0.772268    -0.288526     0.772268     0.308749     0.103264
11800.000000        0.324053     0.082498    -0.219934     0.790777    -0.219934     0.790777     0.324053     0.082498
11900.000000        0.335484     0.059602    -0.150849     0.803844    -0.150849     0.803844     0.335484     0.059602
12000.000000        0.342802     0.035245    -0.081517     0.811622    -0.081517     0.811622     0.342802     0.035245
12100.000000        0.345865     0.010109    -0.012137     0.814221    -0.012137     0.814221     0.345865     0.010109
12200.000000        0.344626    -0.015120     0.057116     0.811696     0.057116     0.811696     0.344626    -0.015120
12300.000000        0.339129    -0.039761     0.126070     0.804049     0.126070     0.804049     0.339129    -0.039761
12400.000000        0.329510    -0.063139     0.194540     0.791228     0.194540     0.791228     0.329510    -0.063139
12500.000000        0.315999    -0.084600     0.262302     0.773133     0.262302     0.773133     0.315999    -0.084600
12600.000000        0.298924    -0.103513     0.329080     0.749628     0.329080     0.749628     0.298924    -0.103513
12700.000000        0.278709    -0.119285     0.394529     0.720560     0.394529     0.720560     0.278709    -0.119285
12800.000000        0.255883    -0.131378     0.458219     0.685771     0.458219     0.685771     0.255883    -0.131378
12900.000000        0.231079    -0.139327     0.519630     0.645134     0.519630     0.645134     0.231079    -0.139327
13000.000000        0.205023    -0.142765     0.578150     0.598571     0.578150     0.598571     0.205023    -0.142765
13100.000000        0.178530    -0.141447     0.633076     0.546091     0.633076     0.546091     0.178530    -0.141447
13200.000000        0.152482    -0.135274     0.683638     0.487817     0.683638     0.487817     0.152482    -0.135274
13300.000000        0.127799    -0.124324     0.729015     0.424018     0.729015     0.424018     0.127799    -0.124324
13400.000000        0.105404    -0.108859     0.768376     0.355125     0.768376     0.355125     0.105404    -0.108859
13500.000000        0.086176    -0.089342     0.800922     0.281751     0.800922     0.281751     0.086176    -0.089342
13600.000000        0.070898    -0.066427     0.825933     0.204682     0.825933     0.204682     0.070898    -0.066427
13700.000000        0.060215    -0.040938     0.842819     0.124869     0.842819     0.124869     0.060215    -0.040938
13800.000000        0.054582    -0.013837     0.851160     0.043386     0.851160     0.043386     0.054582    -0.013837
13900.000000        0.054235     0.013826     0.850744    -0.038608     0.850744    -0.038608     0.054235     0.013826
14000.000000        0.059172     0.040975     0.841581    -0.119926     0.841581    -0.119926     0.059172     0.040975
14100.000000        0.069154     0.066562     0.823902    -0.199412     0.823902    -0.199412     0.069154     0.066562
14200.000000        0.083723     0.089631     0.798147    -0.275992     0.798147    -0.275992     0.083723     0.089631
14300.000000        0.102236     0.109363     0.764923    -0.348725     0.764923    -0.348725     0.102236     0.109363
14400.000000        0.123909     0.125111     0.724968    -0.416830     0.724968    -0.416830     0.123909     0.125111
14500.000000        0.147869     0.136424     0.679098    -0.479703     0.679098    -0.479703     0.147869     0.136424
14600.000000        0.173198     0.143047     0.628160    -0.536921     0.628160    -0.536921     0.173198     0.143047
14700.000000        0.198988     0.144912     0.572989    -0.588225     0.572989    -0.588225     0.198988     0.144912
14800.000000        0.224368     0.142125     0.514373    -0.633502     0.514373    -0.633502     0.224368     0.142125
14900.000000        0.248540     0.134938     0.453027    -0.672755     0.453027    -0.672755     0.248540     0.134938
15000.000000        0.270794     0.123724     0.389579    -0.706072     0.389579    -0.706072     0.270794     0.123724
15100.000000        0.290520     0.108948     0.324567    -0.733595     0.324567    -0.733595     0.290520     0.108948
15200.000000        0.307213     0.091147     0.258437    -0.755495     0.258437    -0.755495     0.307213     0.091147
15300.000000        0.320472     0.070908     0.191553    -0.771943     0.191553    -0.771943     0.320472     0.070908
15400.000000        0.329998     0.048852     0.124211    -0.783095     0.124211    -0.783095     0.329998     0.048852
15500.000000        0.335588     0.025617     0.056653    -0.789076     0.056653    -0.789076     0.335588     0.025617
15600.000000        0.337134     0.001856    -0.010914    -0.789967    -0.010914    -0.789967     0.337134     0.001856
15700.000000        0.334620    -0.021780    -0.078299    -0.785804    -0.078299    -0.785804     0.334620    -0.021780
15800.000000        0.328116    -0.044642    -0.145312    -0.776572    -0.145312    -0.776572     0.328116    -0.044642
15900.000000        0.317785    -0.066096    -0.211738    -0.762216    -0.211738    -0.762216     0.317785    -0.066096
16000.000000        0.303880    -0.085525    -0.277329    -0.742638    -0.277329    -0.742638     0.303880    -0.085525
